/BL (modelFiles=gpdk045.scs:ss) X,/BL (modelFiles=gpdk045.scs:ss) Y,/BLB (modelFiles=gpdk045.scs:ss) X,/BLB (modelFiles=gpdk045.scs:ss) Y,/Q (modelFiles=gpdk045.scs:ss) X,/Q (modelFiles=gpdk045.scs:ss) Y,/QB (modelFiles=gpdk045.scs:ss) X,/QB (modelFiles=gpdk045.scs:ss) Y,/VDD (modelFiles=gpdk045.scs:ss) X,/VDD (modelFiles=gpdk045.scs:ss) Y,/WL (modelFiles=gpdk045.scs:ss) X,/WL (modelFiles=gpdk045.scs:ss) Y,/V0/PLUS (modelFiles=gpdk045.scs:ss) X,/V0/PLUS (modelFiles=gpdk045.scs:ss) Y
0,0,0,1,0,4.364410223527047e-08,0,0.9999998688782993,0,1,0,0,0,-1.675214696354e-11
3e-11,0,3e-11,1,3e-11,4.364410533176318e-08,3e-11,0.9999998688784176,3e-11,1,3e-11,0,3e-11,-1.675207949474515e-11
8.999999999999999e-11,0,8.999999999999999e-11,1,8.999999999999999e-11,4.364410271688066e-08,8.999999999999999e-11,0.9999998688784403,8.999999999999999e-11,1,8.999999999999999e-11,0,8.999999999999999e-11,-1.675207814764458e-11
2.1e-10,0,2.1e-10,1,2.1e-10,4.364410082339883e-08,2.1e-10,0.9999998688783646,2.1e-10,1,2.1e-10,0,2.1e-10,-1.675208568904413e-11
4.499999999999999e-10,0,4.499999999999999e-10,1,4.499999999999999e-10,4.364410475888222e-08,4.499999999999999e-10,0.9999998688785297,4.499999999999999e-10,1,4.499999999999999e-10,0,4.499999999999999e-10,-1.675206918801428e-11
9.299999999999999e-10,0,9.299999999999999e-10,1,9.299999999999999e-10,4.364409926230994e-08,9.299999999999999e-10,0.9999998688783759,9.299999999999999e-10,1,9.299999999999999e-10,0,9.299999999999999e-10,-1.675208505731365e-11
1.53e-09,0,1.53e-09,1,1.53e-09,4.364410501442454e-08,1.53e-09,0.9999998688783294,1.53e-09,1,1.53e-09,0,1.53e-09,-1.67520878835191e-11
1.99e-09,0,1.99e-09,1,1.99e-09,4.364410099664056e-08,1.99e-09,0.9999998688787134,1.99e-09,1,1.99e-09,0,1.99e-09,-1.675205299603551e-11
1.990083416666e-09,0.008341666666664842,1.990083416666e-09,0.9916583333333352,1.990083416666e-09,3.121649451559241e-07,1.990083416666e-09,0.9999992635326882,1.990083416666e-09,1,1.990083416666e-09,0,1.990083416666e-09,-1.235328113839585e-09
1.99025025e-09,0.02502499999999453,1.99025025e-09,0.9749750000000055,1.99025025e-09,9.783149753430844e-08,1.99025025e-09,0.9999992180123853,1.99025025e-09,1,1.99025025e-09,0,1.99025025e-09,6.095840914506801e-10
1.990583916666e-09,0.05839166666665389,1.990583916666e-09,0.9416083333333461,1.990583916666e-09,-5.958582003739147e-08,1.990583916666e-09,0.9999992160002287,1.990583916666e-09,1,1.990583916666e-09,0,1.990583916666e-09,-8.736332130272525e-10
1.991142573879e-09,0.1142573879008797,1.991142573879e-09,0.8857426120991203,1.991142573879e-09,-1.111868616777727e-07,1.991142573879e-09,0.9999992531182249,1.991142573879e-09,1,1.991142573879e-09,0,1.991142573879e-09,7.109048107540014e-10
1.992259888303e-09,0.2259888303693313,1.992259888303e-09,0.7740111696306686,1.992259888303e-09,-1.350354524122971e-07,1.992259888303e-09,0.9999993486119255,1.992259888303e-09,1,1.992259888303e-09,0,1.992259888303e-09,-8.101903703657878e-10
1.994494517153e-09,0.4494517153062346,1.994494517153e-09,0.5505482846937654,1.994494517153e-09,-7.760749769089051e-08,1.994494517153e-09,0.9999994703699834,1.994494517153e-09,1,1.994494517153e-09,0,1.994494517153e-09,7.38092958346089e-10
1.997247258576e-09,0.7247258576530966,1.997247258576e-09,0.2752741423469034,1.997247258576e-09,-1.517185760331352e-08,1.997247258576e-09,0.9999996186287941,1.997247258576e-09,1,1.997247258576e-09,0,1.997247258576e-09,-8.007077398109252e-10
1.999999999999e-09,0.9999999999999586,1.999999999999e-09,4.141131881851834e-14,1.999999999999e-09,4.106738470446651e-08,1.999999999999e-09,0.9999996978881233,1.999999999999e-09,1,1.999999999999e-09,0,1.999999999999e-09,7.411290867077663e-10
2.000083416666e-09,1,2.000083416666e-09,0,2.000083416666e-09,-5.07624965233962e-07,2.000083416666e-09,1.000000273289977,2.000083416666e-09,1,2.000083416666e-09,0,2.000083416666e-09,6.232647196669266e-10
2.00025025e-09,1,2.00025025e-09,0,2.00025025e-09,-4.831302515410666e-07,2.00025025e-09,1.000000282599369,2.00025025e-09,1,2.00025025e-09,0,2.00025025e-09,-4.886483395113787e-10
2.000583916666e-09,1,2.000583916666e-09,0,2.000583916666e-09,-4.192081955724708e-07,2.000583916666e-09,1.000000264903065,2.000583916666e-09,1,2.000583916666e-09,0,2.000583916666e-09,5.370360026602302e-10
2.001143362466e-09,1,2.001143362466e-09,0,2.001143362466e-09,-3.437298497218455e-07,2.001143362466e-09,1.000000265874002,2.001143362466e-09,1,2.001143362466e-09,0,2.001143362466e-09,-4.541955528381575e-10
2.002262254066e-09,1,2.002262254066e-09,0,2.002262254066e-09,-2.174492689311055e-07,2.002262254066e-09,1.000000216424865,2.002262254066e-09,1,2.002262254066e-09,0,2.002262254066e-09,4.958201925613134e-10
2.004500037267e-09,1,2.004500037267e-09,0,2.004500037267e-09,-8.976534723959473e-08,2.004500037267e-09,1.000000146112894,2.004500037267e-09,1,2.004500037267e-09,0,2.004500037267e-09,-4.657453622036788e-10
2.008975603667e-09,1,2.008975603667e-09,0,2.008975603667e-09,1.516051656309499e-08,2.008975603667e-09,0.9999999937463135,2.008975603667e-09,1,2.008975603667e-09,0,2.008975603667e-09,4.619898609950643e-10
2.017926736469e-09,1,2.017926736469e-09,0,2.017926736469e-09,4.708574927890028e-08,2.017926736469e-09,0.9999998832930105,2.017926736469e-09,1,2.017926736469e-09,0,2.017926736469e-09,-4.859460977558609e-10
2.035829002071e-09,1,2.035829002071e-09,0,2.035829002071e-09,5.731194647124955e-08,2.035829002071e-09,0.9999998324125924,2.035829002071e-09,1,2.035829002071e-09,0,2.035829002071e-09,4.487524809347626e-10
2.071633533276e-09,1,2.071633533276e-09,0,2.071633533276e-09,5.422632714897429e-08,2.071633533276e-09,0.9999998515098443,2.071633533276e-09,1,2.071633533276e-09,0,2.071633533276e-09,-4.868518088494068e-10
2.143242595685e-09,1,2.143242595685e-09,0,2.143242595685e-09,5.675567363957459e-08,2.143242595685e-09,0.9999998354592942,2.143242595685e-09,1,2.143242595685e-09,0,2.143242595685e-09,4.483664375459155e-10
2.286460720505e-09,1,2.286460720505e-09,0,2.286460720505e-09,5.436647298717024e-08,2.286460720505e-09,0.9999998506318268,2.286460720505e-09,1,2.286460720505e-09,0,2.286460720505e-09,-4.866159564935465e-10
2.572896970144e-09,1,2.572896970144e-09,0,2.572896970144e-09,5.670945107175772e-08,2.572896970144e-09,0.9999998357891845,2.572896970144e-09,1,2.572896970144e-09,0,2.572896970144e-09,4.482423064033246e-10
2.99e-09,1,2.99e-09,0,2.99e-09,5.43883174711057e-08,2.99e-09,0.9999998504678776,2.99e-09,1,2.99e-09,0,2.99e-09,-4.865447419822502e-10
2.990005213541e-09,1,2.990005213541e-09,0,2.990005213541e-09,1.735737064924296e-05,2.990005213541e-09,1.000018504652064,2.990005213541e-09,1,2.990005213541e-09,0.0005213541666691376,2.990005213541e-09,7.552917448231447e-07
2.990015640625e-09,1,2.990015640625e-09,0,2.990015640625e-09,5.481722616816718e-05,2.990015640625e-09,1.000059061833751,2.990015640625e-09,1,2.990015640625e-09,0.001564062500007413,2.990015640625e-09,1.192296368000812e-06
2.990036494791e-09,1,2.990036494791e-09,0,2.990036494791e-09,0.0001256241566732152,2.990036494791e-09,1.00013766824283,2.990036494791e-09,1,2.990036494791e-09,0.003649479166683963,2.990036494791e-09,8.981122903976817e-07
2.990078203125e-09,1,2.990078203125e-09,0,2.990078203125e-09,0.0002641287328073182,2.990078203125e-09,1.000292239697615,2.990078203125e-09,1,2.990078203125e-09,0.007820312500037063,2.990078203125e-09,1.121709316400128e-06
2.990161619791e-09,1,2.990161619791e-09,0,2.990161619791e-09,0.0005366370338438808,2.990161619791e-09,1.000597806995292,2.990161619791e-09,1,2.990161619791e-09,0.01616197916674326,2.990161619791e-09,9.323562856159148e-07
2.990328453125e-09,1,2.990328453125e-09,0,2.990328453125e-09,0.001055049858201159,2.990328453125e-09,1.001187409025738,2.990328453125e-09,1,2.990328453125e-09,0.03284531250015567,2.990328453125e-09,1.11818107294768e-06
2.990662119791e-09,1,2.990662119791e-09,0,2.990662119791e-09,0.002002158708863116,2.990662119791e-09,1.002293345130352,2.990662119791e-09,1,2.990662119791e-09,0.06621197916698048,2.990662119791e-09,9.586686582521844e-07
2.991329453125e-09,1,2.991329453125e-09,0,2.991329453125e-09,0.003577316350717736,2.991329453125e-09,1.00423886517131,2.991329453125e-09,1,2.991329453125e-09,0.1329453125006301,2.991329453125e-09,1.157672079616335e-06
2.992664119791e-09,1,2.992664119791e-09,0,2.992664119791e-09,0.005803898045786452,2.992664119791e-09,1.007300782234781,2.992664119791e-09,1,2.992664119791e-09,0.2664119791679293,2.992664119791e-09,1.058495330991309e-06
2.995333453125e-09,1,2.995333453125e-09,0,2.995333453125e-09,0.009814780033984777,2.995333453125e-09,1.010935012084508,2.995333453125e-09,1,2.995333453125e-09,0.5333453125025277,2.995333453125e-09,1.422256943892565e-06
2.997666726562e-09,1,2.997666726562e-09,0,2.997666726562e-09,0.02189585727896555,2.997666726562e-09,1.002188294690576,2.997666726562e-09,1,2.997666726562e-09,0.7666726562512639,2.997666726562e-09,-3.044395109442578e-07
2.999006681384e-09,1,2.999006681384e-09,0,2.999006681384e-09,0.03695484484318847,2.999006681384e-09,0.9824583151056522,2.999006681384e-09,1,2.999006681384e-09,0.9006681384140033,2.999006681384e-09,-4.448459034292513e-06
2.999503340692e-09,1,2.999503340692e-09,0,2.999503340692e-09,0.04496226100307728,2.999503340692e-09,0.9701606103314612,2.999503340692e-09,1,2.999503340692e-09,0.9503340692070017,2.999503340692e-09,-5.562566710045261e-06
3e-09,1,3e-09,0,3e-09,0.05456745743596584,3e-09,0.9545114905256052,3e-09,1,3e-09,1,3e-09,-7.56537239484417e-06
3.000005213541e-09,1,3.000005213541e-09,0,3.000005213541e-09,0.05463261997101066,3.000005213541e-09,0.9543043657484884,3.000005213541e-09,1,3.000005213541e-09,1,3.000005213541e-09,-8.786458245884232e-06
3.000015640625e-09,1,3.000015640625e-09,0,3.000015640625e-09,0.05474379705337701,3.000015640625e-09,0.953880344654415,3.000015640625e-09,1,3.000015640625e-09,1,3.000015640625e-09,-9.897031232445975e-06
3.000020854166e-09,1,3.000020854166e-09,0,3.000020854166e-09,0.05479391126497208,3.000020854166e-09,0.9536655740713283,3.000020854166e-09,1,3.000020854166e-09,1,3.000020854166e-09,-9.679622880145459e-06
3.000023460937e-09,1,3.000023460937e-09,0,3.000023460937e-09,0.05482063967290884,3.000023460937e-09,0.9535590350809455,3.000023460937e-09,1,3.000023460937e-09,1,3.000023460937e-09,-9.63461771228951e-06
3.000028674479e-09,1,3.000028674479e-09,0,3.000028674479e-09,0.05487332917155754,3.000028674479e-09,0.9533456246724158,3.000028674479e-09,1,3.000028674479e-09,1,3.000028674479e-09,-9.66340489563589e-06
3.000031281249e-09,1,3.000031281249e-09,0,3.000031281249e-09,0.05489966858769489,3.000031281249e-09,0.9532389537654853,3.000031281249e-09,1,3.000031281249e-09,1,3.000031281249e-09,-9.649974620991324e-06
3.000036494791e-09,1,3.000036494791e-09,0,3.000036494791e-09,0.05495232761917918,3.000036494791e-09,0.9530256265155786,3.000036494791e-09,1,3.000036494791e-09,1,3.000036494791e-09,-9.661644155279162e-06
3.000046921874e-09,1,3.000046921874e-09,0,3.000046921874e-09,0.05505763045314098,3.000046921874e-09,0.9525990897335108,3.000046921874e-09,1,3.000046921874e-09,1,3.000046921874e-09,-9.667059830009147e-06
3.000067776041e-09,1,3.000067776041e-09,0,3.000067776041e-09,0.05526815846898124,3.000067776041e-09,0.9517464697814464,3.000067776041e-09,1,3.000067776041e-09,1,3.000067776041e-09,-9.690527058387386e-06
3.000109484374e-09,1,3.000109484374e-09,0,3.000109484374e-09,0.05568895281039871,3.000109484374e-09,0.9500430087271274,3.000109484374e-09,1,3.000109484374e-09,1,3.000109484374e-09,-9.725537300457972e-06
3.000192901041e-09,1,3.000192901041e-09,0,3.000192901041e-09,0.05652966754262571,3.000192901041e-09,0.9466428581152431,3.000192901041e-09,1,3.000192901041e-09,1,3.000192901041e-09,-9.802686521555889e-06
3.000359734374e-09,1,3.000359734374e-09,0,3.000359734374e-09,0.05820909087355945,3.000359734374e-09,0.9398672406718027,3.000359734374e-09,1,3.000359734374e-09,1,3.000359734374e-09,-9.935382121985979e-06
3.000693401041e-09,1,3.000693401041e-09,0,3.000693401041e-09,0.06157128911394844,3.000693401041e-09,0.9264012788562087,3.000693401041e-09,1,3.000693401041e-09,1,3.000693401041e-09,-1.01719249390742e-05
3.001360734374e-09,1,3.001360734374e-09,0,3.001360734374e-09,0.0683909223169014,3.001360734374e-09,0.8997930585735209,3.001360734374e-09,1,3.001360734374e-09,1,3.001360734374e-09,-1.054416754197856e-05
3.002695401041e-09,1,3.002695401041e-09,0,3.002695401041e-09,0.08286134181111061,3.002695401041e-09,0.8483577454581902,3.002695401041e-09,1,3.002695401041e-09,1,3.002695401041e-09,-1.115922550901804e-05
3.005364734374e-09,1,3.005364734374e-09,0,3.005364734374e-09,0.1158406231141665,3.005364734374e-09,0.7518945491826958,3.005364734374e-09,1,3.005364734374e-09,1,3.005364734374e-09,-1.133107908817483e-05
3.008714149638e-09,1,3.008714149638e-09,0,3.008714149638e-09,0.158725986702803,3.008714149638e-09,0.6337259880726386,3.008714149638e-09,1,3.008714149638e-09,1,3.008714149638e-09,-1.049280506476735e-05
3.012107021227e-09,1,3.012107021227e-09,0,3.012107021227e-09,0.1951778385182867,3.012107021227e-09,0.5099886903333497,3.012107021227e-09,1,3.012107021227e-09,1,3.012107021227e-09,-1.005345582516225e-05
3.016024629339e-09,1,3.016024629339e-09,0,3.016024629339e-09,0.2289276125871436,3.016024629339e-09,0.370366166920703,3.016024629339e-09,1,3.016024629339e-09,1,3.016024629339e-09,-1.053613177587836e-05
3.020491661096e-09,1,3.020491661096e-09,0,3.020491661096e-09,0.2792888309697391,3.020491661096e-09,0.2329242670383198,3.020491661096e-09,1,3.020491661096e-09,1,3.020491661096e-09,-1.215459864934389e-05
3.024100214641e-09,1,3.024100214641e-09,0,3.024100214641e-09,0.3461195525875408,3.024100214641e-09,0.1461891219439436,3.024100214641e-09,1,3.024100214641e-09,1,3.024100214641e-09,-1.280777479052267e-05
3.027788587624e-09,1,3.027788587624e-09,0,3.027788587624e-09,0.4453509303401156,3.027788587624e-09,0.08723616647718896,3.027788587624e-09,1,3.027788587624e-09,1,3.027788587624e-09,-1.2534959614416e-05
3.03251691288e-09,1,3.03251691288e-09,0,3.03251691288e-09,0.6022452065986489,3.03251691288e-09,0.04799186628789025,3.03251691288e-09,1,3.03251691288e-09,1,3.03251691288e-09,-1.205866679135065e-05
3.036686058601e-09,1,3.036686058601e-09,0,3.036686058601e-09,0.7364581675371231,3.036686058601e-09,0.03109996321341457,3.036686058601e-09,1,3.036686058601e-09,1,3.036686058601e-09,-1.082479593924864e-05
3.039976831938e-09,1,3.039976831938e-09,0,3.039976831938e-09,0.8242567480995063,3.039976831938e-09,0.02195286346846421,3.039976831938e-09,1,3.039976831938e-09,1,3.039976831938e-09,-8.881293999978073e-06
3.043589212824e-09,1,3.043589212824e-09,0,3.043589212824e-09,0.8942374725747608,3.043589212824e-09,0.0138236079372718,3.043589212824e-09,1,3.043589212824e-09,1,3.043589212824e-09,-6.050474441550518e-06
3.047967172686e-09,1,3.047967172686e-09,0,3.047967172686e-09,0.9445957342711776,3.047967172686e-09,0.007161487638187278,3.047967172686e-09,1,3.047967172686e-09,1,3.047967172686e-09,-3.269820128297108e-06
3.052029326045e-09,1,3.052029326045e-09,0,3.052029326045e-09,0.9698087449110454,3.052029326045e-09,0.003794751313633066,3.052029326045e-09,1,3.052029326045e-09,1,3.052029326045e-09,-1.907088459634811e-06
3.056370626129e-09,1,3.056370626129e-09,0,3.056370626129e-09,0.9844028259551384,3.056370626129e-09,0.001932536880635329,3.056370626129e-09,1,3.056370626129e-09,1,3.056370626129e-09,-9.222922907142629e-07
3.061121416124e-09,1,3.061121416124e-09,0,3.061121416124e-09,0.9925262141917552,3.061121416124e-09,0.0009215225978240694,3.061121416124e-09,1,3.061121416124e-09,1,3.061121416124e-09,-5.222461399892148e-07
3.067000278362e-09,1,3.067000278362e-09,0,3.067000278362e-09,0.9970792353521507,3.067000278362e-09,0.0003595364603406096,3.067000278362e-09,1,3.067000278362e-09,1,3.067000278362e-09,-1.341588522471737e-07
3.074283140497e-09,1,3.074283140497e-09,0,3.074283140497e-09,0.999138713217667,3.074283140497e-09,0.0001059719778935229,3.074283140497e-09,1,3.074283140497e-09,1,3.074283140497e-09,-1.054987766585062e-07
3.08377653681e-09,1,3.08377653681e-09,0,3.08377653681e-09,0.9998540758333355,3.08377653681e-09,1.798429735051362e-05,3.08377653681e-09,1,3.08377653681e-09,1,3.08377653681e-09,4.131686564114999e-08
3.096750550667e-09,1,3.096750550667e-09,0,3.096750550667e-09,0.9999983628774027,3.096750550667e-09,2.091931009665329e-07,3.096750550667e-09,1,3.096750550667e-09,1,3.096750550667e-09,-5.064903126918997e-08
3.116358068033e-09,1,3.116358068033e-09,0,3.116358068033e-09,1.000000001076751,3.116358068033e-09,3.202405334786916e-08,3.116358068033e-09,1,3.116358068033e-09,1,3.116358068033e-09,5.045191909775176e-08
3.150431199493e-09,1,3.150431199493e-09,0,3.150431199493e-09,1.000000011846577,3.150431199493e-09,-4.114129537173e-09,3.150431199493e-09,1,3.150431199493e-09,1,3.150431199493e-09,-5.042807928172583e-08
3.218577462413e-09,1,3.218577462413e-09,0,3.218577462413e-09,0.9999996028136765,3.218577462413e-09,6.879719901371244e-08,3.218577462413e-09,1,3.218577462413e-09,1,3.218577462413e-09,5.036406047886386e-08
3.354869988253e-09,1,3.354869988253e-09,0,3.354869988253e-09,1.000000396827496,3.354869988253e-09,-9.588100287183171e-09,3.354869988253e-09,1,3.354869988253e-09,1,3.354869988253e-09,-5.036258402881086e-08
3.627455039932e-09,1,3.627455039932e-09,0,3.627455039932e-09,0.9999989974580482,3.627455039932e-09,6.572091147759908e-08,3.627455039932e-09,1,3.627455039932e-09,1,3.627455039932e-09,5.029068431879934e-08
4.172625143289999e-09,1,4.172625143289999e-09,0,4.172625143289999e-09,1.000001101247358,4.172625143289999e-09,-4.030431787621195e-09,4.172625143289999e-09,1,4.172625143289999e-09,1,4.172625143289999e-09,-5.028679640271989e-08
4.77262514329e-09,1,4.77262514329e-09,0,4.77262514329e-09,0.9999983008258773,4.77262514329e-09,5.910054951806022e-08,4.77262514329e-09,1,4.77262514329e-09,1,4.77262514329e-09,5.021809165930046e-08
5.372625143289999e-09,1,5.372625143289999e-09,0,5.372625143289999e-09,1.000001422070704,5.372625143289999e-09,3.689769592460566e-09,5.372625143289999e-09,1,5.372625143289999e-09,1,5.372625143289999e-09,-5.024910853242038e-08
5.97262514329e-09,1,5.97262514329e-09,0,5.97262514329e-09,0.9999983671104163,5.97262514329e-09,5.143421665805935e-08,5.97262514329e-09,1,5.97262514329e-09,1,5.97262514329e-09,5.021659640740862e-08
5.999999999999999e-09,1,5.999999999999999e-09,0,5.999999999999999e-09,0.9999996204809295,5.999999999999999e-09,4.670281745773677e-08,5.999999999999999e-09,1,5.999999999999999e-09,1,5.999999999999999e-09,-1.790938482394961e-11
6.000005213541e-09,1,6.000005213541e-09,0,6.000005213541e-09,0.9999761637982471,6.000005213541e-09,-3.659098648572681e-05,6.000005213541e-09,1,6.000005213541e-09,0.9994786458333722,6.000005213541e-09,-1.335745456584856e-06
6.000015640625e-09,1,6.000015640625e-09,0,6.000015640625e-09,0.9999217343077362,6.000015640625e-09,-0.0001257066013835972,6.000015640625e-09,1,6.000015640625e-09,0.9984359375001166,6.000015640625e-09,-2.4209316250764e-06
6.000020854165999e-09,1,6.000020854165999e-09,0,6.000020854165999e-09,0.9998931108340403,6.000020854165999e-09,-0.0001735862997330496,6.000020854165999e-09,1,6.000020854165999e-09,0.9979145833334888,6.000020854165999e-09,-2.137572234835558e-06
6.000031281248999e-09,1,6.000031281248999e-09,0,6.000031281248999e-09,0.9998385307126256,6.000031281248999e-09,-0.0002630759118800714,6.000031281248999e-09,1,6.000031281248999e-09,0.9968718750002332,6.000031281248999e-09,-2.097544794959549e-06
6.000052135415999e-09,1,6.000052135415999e-09,0,6.000052135415999e-09,0.999729390948662,6.000052135415999e-09,-0.0004422213114415722,6.000052135415999e-09,1,6.000052135415999e-09,0.994786458333722,6.000052135415999e-09,-2.108645199009705e-06
6.000093843749e-09,1,6.000093843749e-09,0,6.000093843749e-09,0.9995145834151488,6.000093843749e-09,-0.0007932144806906655,6.000093843749e-09,1,6.000093843749e-09,0.9906156250006996,6.000093843749e-09,-2.065020436968694e-06
6.000177260415999e-09,1,6.000177260415999e-09,0,6.000177260415999e-09,0.9990957495580247,6.000177260415999e-09,-0.001471982112822307,6.000177260415999e-09,1,6.000177260415999e-09,0.9822739583346548,6.000177260415999e-09,-2.043748434889388e-06
