/BL (modelFiles=gpdk045.scs:ss) X,/BL (modelFiles=gpdk045.scs:ss) Y,/BLB (modelFiles=gpdk045.scs:ss) X,/BLB (modelFiles=gpdk045.scs:ss) Y,/Q (modelFiles=gpdk045.scs:ss) X,/Q (modelFiles=gpdk045.scs:ss) Y,/QB (modelFiles=gpdk045.scs:ss) X,/QB (modelFiles=gpdk045.scs:ss) Y,/VDD (modelFiles=gpdk045.scs:ss) X,/VDD (modelFiles=gpdk045.scs:ss) Y,/WL (modelFiles=gpdk045.scs:ss) X,/WL (modelFiles=gpdk045.scs:ss) Y,/V0/PLUS (modelFiles=gpdk045.scs:ss) X,/V0/PLUS (modelFiles=gpdk045.scs:ss) Y
0,0,0,0.8,0,0.3601160273480223,0,0.360113183082731,0,0.8,0,0,0,-2.585119451977301e-08
3e-11,0,3e-11,0.8,3e-11,0.3601160273093633,3e-11,0.3601131830798727,3e-11,0.8,3e-11,0,3e-11,-2.58512025854204e-08
8.999999999999999e-11,0,8.999999999999999e-11,0.8,8.999999999999999e-11,0.360116027234095,8.999999999999999e-11,0.3601131830820083,8.999999999999999e-11,0.8,8.999999999999999e-11,0,8.999999999999999e-11,-2.585120259540756e-08
2.1e-10,0,2.1e-10,0.8,2.1e-10,0.3601160270874781,2.1e-10,0.3601131831008061,2.1e-10,0.8,2.1e-10,0,2.1e-10,-2.585120261102587e-08
4.499999999999999e-10,0,4.499999999999999e-10,0.8,4.499999999999999e-10,0.3601160267869882,4.499999999999999e-10,0.3601131832242583,4.499999999999999e-10,0.8,4.499999999999999e-10,0,4.499999999999999e-10,-2.585120263872489e-08
9.299999999999999e-10,0,9.299999999999999e-10,0.8,9.299999999999999e-10,0.3601160260142076,9.299999999999999e-10,0.3601131838310295,9.299999999999999e-10,0.8,9.299999999999999e-10,0,9.299999999999999e-10,-2.585120265615229e-08
1.53e-09,0,1.53e-09,0.8,1.53e-09,0.3601160241894786,1.53e-09,0.3601131855998166,1.53e-09,0.8,1.53e-09,0,1.53e-09,-2.585120266802793e-08
1.99e-09,0,1.99e-09,0.8,1.99e-09,0.3601160215374887,1.99e-09,0.360113188243405,1.99e-09,0.8,1.99e-09,0,1.99e-09,-2.585120266431758e-08
1.990083437499e-09,0.006674999999993557,1.990083437499e-09,0.7933250000000065,1.990083437499e-09,0.3601167991726313,1.990083437499e-09,0.3601124588225879,1.990083437499e-09,0.8,1.990083437499e-09,0,1.990083437499e-09,-2.58067452335453e-08
1.990250312499e-09,0.02002499999998067,1.990250312499e-09,0.7799750000000194,1.990250312499e-09,0.3601168436910793,1.990250312499e-09,0.3601124285095275,1.990250312499e-09,0.8,1.990250312499e-09,0,1.990250312499e-09,-2.588190619350339e-08
1.990584062499e-09,0.0467249999999549,1.990584062499e-09,0.7532750000000451,1.990584062499e-09,0.3601168036368876,1.990584062499e-09,0.3601124564126142,1.990584062499e-09,0.8,1.990584062499e-09,0,1.990584062499e-09,-2.582630114062381e-08
1.991142928614e-09,0.09143428912953006,1.991142928614e-09,0.7085657108704699,1.991142928614e-09,0.3601168446012238,1.991142928614e-09,0.3601124289123593,1.991142928614e-09,0.8,1.991142928614e-09,0,1.991142928614e-09,-2.587224005134464e-08
1.992260660842e-09,0.1808528673886804,1.992260660842e-09,0.6191471326113197,1.992260660842e-09,0.3601168040951929,1.992260660842e-09,0.3601124568693476,1.992260660842e-09,0.8,1.992260660842e-09,0,1.992260660842e-09,-2.583191159701681e-08
1.994496125298e-09,0.359690023906981,1.994496125298e-09,0.4403099760930191,1.994496125298e-09,0.3601167393999381,1.994496125298e-09,0.3601124084729483,1.994496125298e-09,0.8,1.994496125298e-09,0,1.994496125298e-09,-2.587830953833804e-08
1.997248062649e-09,0.579845011953507,1.997248062649e-09,0.220154988046493,1.997248062649e-09,0.360116667078291,1.997248062649e-09,0.360112550192122,1.997248062649e-09,0.8,1.997248062649e-09,0,1.997248062649e-09,-2.58202310248599e-08
2e-09,0.8,2e-09,0,2e-09,0.3601166940945231,2e-09,0.3601124865123345,2e-09,0.8,2e-09,0,2e-09,-2.58842174190609e-08
2.0000834375e-09,0.8,2.0000834375e-09,0,2.0000834375e-09,0.3601159464737674,2.0000834375e-09,0.3601132798604801,2.0000834375e-09,0.8,2.0000834375e-09,0,2.0000834375e-09,-2.580928032667774e-08
2.0002503125e-09,0.8,2.0002503125e-09,0,2.0002503125e-09,0.3601159141215412,2.0002503125e-09,0.3601133259438422,2.0002503125e-09,0.8,2.0002503125e-09,0,2.0002503125e-09,-2.587986350098487e-08
2.000584062499e-09,0.8,2.000584062499e-09,0,2.000584062499e-09,0.3601159478393218,2.000584062499e-09,0.3601132793752764,2.000584062499e-09,0.8,2.000584062499e-09,0,2.000584062499e-09,-2.582867271221413e-08
2.001142953934e-09,0.8,2.001142953934e-09,0,2.001142953934e-09,0.3601159171507006,2.001142953934e-09,0.3601133224322404,2.001142953934e-09,0.8,2.001142953934e-09,0,2.001142953934e-09,-2.587020238312676e-08
2.002260736804e-09,0.8,2.002260736804e-09,0,2.002260736804e-09,0.3601159533064863,2.002260736804e-09,0.3601132740877048,2.002260736804e-09,0.8,2.002260736804e-09,0,2.002260736804e-09,-2.583391567616524e-08
2.004496302544e-09,0.8,2.004496302544e-09,0,2.004496302544e-09,0.3601159286242661,2.004496302544e-09,0.3601133106458195,2.004496302544e-09,0.8,2.004496302544e-09,0,2.004496302544e-09,-2.586763448646643e-08
2.008967434024e-09,0.8,2.008967434024e-09,0,2.008967434024e-09,0.3601159760745965,2.008967434024e-09,0.3601132510297189,2.008967434024e-09,0.8,2.008967434024e-09,0,2.008967434024e-09,-2.583518642246375e-08
2.017909696983e-09,0.8,2.017909696983e-09,0,2.017909696983e-09,0.3601159746174837,2.017909696983e-09,0.3601132639148346,2.017909696983e-09,0.8,2.017909696983e-09,0,2.017909696983e-09,-2.586700254603271e-08
2.035794222901e-09,0.8,2.035794222901e-09,0,2.035794222901e-09,0.3601160693162898,2.035794222901e-09,0.3601131564322684,2.035794222901e-09,0.8,2.035794222901e-09,0,2.035794222901e-09,-2.583550178409342e-08
2.071563274737e-09,0.8,2.071563274737e-09,0,2.071563274737e-09,0.3601161665495564,2.071563274737e-09,0.3601130693615086,2.071563274737e-09,0.8,2.071563274737e-09,0,2.071563274737e-09,-2.586684552226548e-08
2.14310137841e-09,0.8,2.14310137841e-09,0,2.14310137841e-09,0.3601164759217871,2.14310137841e-09,0.3601127450973171,2.14310137841e-09,0.8,2.14310137841e-09,0,2.14310137841e-09,-2.583558105122021e-08
2.286177585755e-09,0.8,2.286177585755e-09,0,2.286177585755e-09,0.3601170805597407,2.286177585755e-09,0.360112147532047,2.286177585755e-09,0.8,2.286177585755e-09,0,2.286177585755e-09,-2.58668072816678e-08
2.572330000446e-09,0.8,2.572330000446e-09,0,2.572330000446e-09,0.3601188036579604,2.572330000446e-09,0.3601104065129651,2.572330000446e-09,0.8,2.572330000446e-09,0,2.572330000446e-09,-2.58356022217022e-08
2.99e-09,0.8,2.99e-09,0,2.99e-09,0.3601227057930207,2.99e-09,0.3601065121879622,2.99e-09,0.8,2.99e-09,0,2.99e-09,-2.586679792400939e-08
2.990005214843e-09,0.8,2.990005214843e-09,0,2.990005214843e-09,0.3601419955484849,2.990005214843e-09,0.3601257476175599,2.990005214843e-09,0.8,2.990005214843e-09,0.0004171874999913255,2.990005214843e-09,4.886208265641492e-07
2.990015644531e-09,0.8,2.990015644531e-09,0,2.990015644531e-09,0.3601873918351843,2.990015644531e-09,0.3601711184556577,2.990015644531e-09,0.8,2.990015644531e-09,0.001251562499973977,2.990015644531e-09,7.744813927844557e-07
2.990036503906e-09,0.8,2.990036503906e-09,0,2.990036503906e-09,0.3602823588280493,2.990036503906e-09,0.360266100638989,2.990036503906e-09,0.8,2.990036503906e-09,0.002920312499939279,2.990036503906e-09,5.949000761568801e-07
2.990078222656e-09,0.8,2.990078222656e-09,0,2.990078222656e-09,0.3604693126116385,2.990078222656e-09,0.3604530469052187,2.990078222656e-09,0.8,2.990078222656e-09,0.006257812499869883,2.990078222656e-09,7.381352301597225e-07
2.990161660156e-09,0.8,2.990161660156e-09,0,2.990161660156e-09,0.3608458281284878,2.990161660156e-09,0.3608295786355168,2.990161660156e-09,0.8,2.990161660156e-09,0.01293281249973109,2.990161660156e-09,6.109096749084965e-07
2.990328535156e-09,0.8,2.990328535156e-09,0,2.990328535156e-09,0.3615966829562988,2.990328535156e-09,0.3615804392971228,2.990328535156e-09,0.8,2.990328535156e-09,0.02628281249945351,2.990328535156e-09,7.323235518376291e-07
2.990662285156e-09,0.8,2.990662285156e-09,0,2.990662285156e-09,0.3631015191510097,2.990662285156e-09,0.3630853209348665,2.990662285156e-09,0.8,2.990662285156e-09,0.05298281249889835,2.990662285156e-09,6.168247612885241e-07
2.991329785156e-09,0.8,2.991329785156e-09,0,2.991329785156e-09,0.3661128002429236,2.991329785156e-09,0.3660967000877747,2.991329785156e-09,0.8,2.991329785156e-09,0.106382812497788,2.991329785156e-09,7.358656774618895e-07
2.992664785156e-09,0.8,2.992664785156e-09,0,2.992664785156e-09,0.3721567573829825,2.992664785156e-09,0.3721409462057007,2.992664785156e-09,0.8,2.992664785156e-09,0.2131828124955674,2.992664785156e-09,6.285897100742453e-07
2.995334785156e-09,0.8,2.995334785156e-09,0,2.995334785156e-09,0.3843033183578949,2.995334785156e-09,0.3842067584957043,2.995334785156e-09,0.8,2.995334785156e-09,0.426782812491126,2.995334785156e-09,7.495886768661427e-07
2.998004785156e-09,0.8,2.998004785156e-09,0,2.998004785156e-09,0.3953820071673698,2.998004785156e-09,0.3915058324414955,2.998004785156e-09,0.8,2.998004785156e-09,0.6403828124866847,2.998004785156e-09,2.999858482183791e-07
2.999002392578e-09,0.8,2.999002392578e-09,0,2.999002392578e-09,0.3984921447585346,2.999002392578e-09,0.3895616048434115,2.999002392578e-09,0.8,2.999002392578e-09,0.7201914062433424,2.999002392578e-09,-1.387223238516492e-07
3e-09,0.8,3e-09,0,3e-09,0.3999560204048325,3e-09,0.3796573022967279,3e-09,0.8,3e-09,0.8,3e-09,-1.203556620350768e-06
3.000005214843e-09,0.8,3.000005214843e-09,0,3.000005214843e-09,0.3999361157544339,3.000005214843e-09,0.3795595634638894,3.000005214843e-09,0.8,3.000005214843e-09,0.8,3.000005214843e-09,-1.713901906507315e-06
3.000007822265e-09,0.8,3.000007822265e-09,0,3.000007822265e-09,0.3999250026337491,3.000007822265e-09,0.3795094569509929,3.000007822265e-09,0.8,3.000007822265e-09,0.8,3.000007822265e-09,-1.891196101031461e-06
3.000013037109e-09,0.8,3.000013037109e-09,0,3.000013037109e-09,0.3999005149866523,3.000013037109e-09,0.3794063722549843,3.000013037109e-09,0.8,3.000013037109e-09,0.8,3.000013037109e-09,-1.937541663840866e-06
3.000015644531e-09,0.8,3.000015644531e-09,0,3.000015644531e-09,0.3998882361181921,3.000015644531e-09,0.3793546038805283,3.000015644531e-09,0.8,3.000015644531e-09,0.8,3.000015644531e-09,-1.925116482088e-06
3.000020859375e-09,0.8,3.000020859375e-09,0,3.000020859375e-09,0.3998635976184936,3.000020859375e-09,0.3792509789162014,3.000020859375e-09,0.8,3.000020859375e-09,0.8,3.000020859375e-09,-1.934254406764922e-06
3.000031289062e-09,0.8,3.000031289062e-09,0,3.000031289062e-09,0.3998143436067504,3.000031289062e-09,0.3790437018424293,3.000031289062e-09,0.8,3.000031289062e-09,0.8,3.000031289062e-09,-1.927782455138483e-06
3.000052148437e-09,0.8,3.000052148437e-09,0,3.000052148437e-09,0.3997158414394864,3.000052148437e-09,0.3786292483936831,3.000052148437e-09,0.8,3.000052148437e-09,0.8,3.000052148437e-09,-1.932371853526133e-06
3.000093867187e-09,0.8,3.000093867187e-09,0,3.000093867187e-09,0.3995190245330412,3.000093867187e-09,0.3778008240509617,3.000093867187e-09,0.8,3.000093867187e-09,0.8,3.000093867187e-09,-1.925362543398213e-06
3.000177304687e-09,0.8,3.000177304687e-09,0,3.000177304687e-09,0.3991260099725785,3.000177304687e-09,0.3761458870428134,3.000177304687e-09,0.8,3.000177304687e-09,0.8,3.000177304687e-09,-1.926795949714782e-06
3.000344179687e-09,0.8,3.000344179687e-09,0,3.000344179687e-09,0.3983425804960423,3.000344179687e-09,0.3728437352449614,3.000344179687e-09,0.8,3.000344179687e-09,0.8,3.000344179687e-09,-1.914616435369161e-06
3.000677929687e-09,0.8,3.000677929687e-09,0,3.000677929687e-09,0.3967860391787095,3.000677929687e-09,0.3662707870611449,3.000677929687e-09,0.8,3.000677929687e-09,0.8,3.000677929687e-09,-1.905278605390783e-06
3.001345429687e-09,0.8,3.001345429687e-09,0,3.001345429687e-09,0.3937148983774352,3.001345429687e-09,0.3532540864203652,3.001345429687e-09,0.8,3.001345429687e-09,0.8,3.001345429687e-09,-1.872373076041715e-06
3.002680429687e-09,0.8,3.002680429687e-09,0,3.002680429687e-09,0.387748457132322,3.002680429687e-09,0.3277664068584676,3.002680429687e-09,0.8,3.002680429687e-09,0.8,3.002680429687e-09,-1.824324557081381e-06
3.005350429687e-09,0.8,3.005350429687e-09,0,3.005350429687e-09,0.3766334059157389,3.005350429687e-09,0.2791829828190169,3.005350429687e-09,0.8,3.005350429687e-09,0.8,3.005350429687e-09,-1.73290514655765e-06
3.010690429688e-09,0.8,3.010690429688e-09,0,3.010690429688e-09,0.3592421146046997,3.010690429688e-09,0.1929278016033885,3.010690429688e-09,0.8,3.010690429688e-09,0.8,3.010690429688e-09,-1.706470497177913e-06
3.018574918357e-09,0.8,3.018574918357e-09,0,3.018574918357e-09,0.3541306614971291,3.018574918357e-09,0.09811646293066741,3.018574918357e-09,0.8,3.018574918357e-09,0.8,3.018574918357e-09,-2.025586414295198e-06
3.025710601041e-09,0.8,3.025710601041e-09,0,3.025710601041e-09,0.3770062194068713,3.025710601041e-09,0.04980430752318551,3.025710601041e-09,0.8,3.025710601041e-09,0.8,3.025710601041e-09,-2.255222127143966e-06
3.034415371941e-09,0.8,3.034415371941e-09,0,3.034415371941e-09,0.43125635499401,3.034415371941e-09,0.02519036198889689,3.034415371941e-09,0.8,3.034415371941e-09,0.8,3.034415371941e-09,-2.392317741025138e-06
3.042086077568e-09,0.8,3.042086077568e-09,0,3.042086077568e-09,0.4884953460425365,3.042086077568e-09,0.01749923798814057,3.042086077568e-09,0.8,3.042086077568e-09,0.8,3.042086077568e-09,-2.33531146112194e-06
3.048988791568e-09,0.8,3.048988791568e-09,0,3.048988791568e-09,0.5399533328825178,3.048988791568e-09,0.01438649880810733,3.048988791568e-09,0.8,3.048988791568e-09,0.8,3.048988791568e-09,-2.271195244012187e-06
3.057386072619e-09,0.8,3.057386072619e-09,0,3.057386072619e-09,0.5986671177726934,3.057386072619e-09,0.01194014660948119,3.057386072619e-09,0.8,3.057386072619e-09,0.8,3.057386072619e-09,-2.124865239096162e-06
3.06879437259e-09,0.8,3.06879437259e-09,0,3.06879437259e-09,0.6688585153206774,3.06879437259e-09,0.009052875045231062,3.06879437259e-09,0.8,3.06879437259e-09,0.8,3.06879437259e-09,-1.897164451505087e-06
3.084970313877e-09,0.8,3.084970313877e-09,0,3.084970313877e-09,0.742305284129009,3.084970313877e-09,0.005003872119785624,3.084970313877e-09,0.8,3.084970313877e-09,0.8,3.084970313877e-09,-1.225515047593946e-06
3.101239616294e-09,0.8,3.101239616294e-09,0,3.101239616294e-09,0.7807108381974287,3.101239616294e-09,0.001934552411668262,3.101239616294e-09,0.8,3.101239616294e-09,0.8,3.101239616294e-09,-4.891443936511529e-07
3.122523808055e-09,0.8,3.122523808055e-09,0,3.122523808055e-09,0.7967255170112107,3.122523808055e-09,0.0003236042407274872,3.122523808055e-09,0.8,3.122523808055e-09,0.8,3.122523808055e-09,-8.421611553304842e-08
3.138708716758e-09,0.8,3.138708716758e-09,0,3.138708716758e-09,0.7990913723139939,3.138708716758e-09,9.592863451865888e-05,3.138708716758e-09,0.8,3.138708716758e-09,0.8,3.138708716758e-09,-2.855822683238872e-08
3.154420007486e-09,0.8,3.154420007486e-09,0,3.154420007486e-09,0.7997263206213212,3.154420007486e-09,2.619438254496586e-05,3.154420007486e-09,0.8,3.154420007486e-09,0.8,3.154420007486e-09,-3.093735566420037e-09
3.174378361204e-09,0.8,3.174378361204e-09,0,3.174378361204e-09,0.7999622115619384,3.174378361204e-09,5.297126057820622e-06,3.174378361204e-09,0.8,3.174378361204e-09,0.8,3.174378361204e-09,-5.93958093179062e-09
3.208469802863e-09,0.8,3.208469802863e-09,0,3.208469802863e-09,0.8000028213376528,3.208469802863e-09,-1.26924414096018e-06,3.208469802863e-09,0.8,3.208469802863e-09,0.8,3.208469802863e-09,4.954204664828599e-09
3.268977797214e-09,0.8,3.268977797214e-09,0,3.268977797214e-09,0.7999988105313356,3.268977797214e-09,9.332134179006241e-07,3.268977797214e-09,0.8,3.268977797214e-09,0.8,3.268977797214e-09,-4.911772609598187e-09
3.375175647294e-09,0.8,3.375175647294e-09,0,3.375175647294e-09,0.8000002421127896,3.375175647294e-09,-7.010372314430626e-07,3.375175647294e-09,0.8,3.375175647294e-09,0.8,3.375175647294e-09,4.871119448473457e-09
3.587571347454e-09,0.8,3.587571347454e-09,0,3.587571347454e-09,0.7999994490558946,3.587571347454e-09,7.242514596352086e-07,3.587571347454e-09,0.8,3.587571347454e-09,0.8,3.587571347454e-09,-4.888663382009583e-09
4.012362747775e-09,0.8,4.012362747775e-09,0,4.012362747775e-09,0.8000000272896952,4.012362747775e-09,-6.135603406465954e-07,4.012362747775e-09,0.8,4.012362747775e-09,0.8,4.012362747775e-09,4.862668361287078e-09
4.612362747774999e-09,0.8,4.612362747774999e-09,0,4.612362747774999e-09,0.7999995490740267,4.612362747774999e-09,6.779722298341357e-07,4.612362747774999e-09,0.8,4.612362747774999e-09,0.8,4.612362747774999e-09,-4.884539571024609e-09
5.212362747775e-09,0.8,5.212362747775e-09,0,5.212362747775e-09,0.7999999550947495,5.212362747775e-09,-5.763210408020555e-07,5.212362747775e-09,0.8,5.212362747775e-09,0.8,5.212362747775e-09,4.859572151477808e-09
5.812362747774999e-09,0.8,5.812362747774999e-09,0,5.812362747774999e-09,0.7999996580855545,5.812362747774999e-09,7.226247777661244e-07,5.812362747774999e-09,0.8,5.812362747774999e-09,0.8,5.812362747774999e-09,-4.879937821196786e-09
5.999999999999999e-09,0.8,5.999999999999999e-09,0,5.999999999999999e-09,0.7999997785905565,5.999999999999999e-09,-6.325310927034172e-07,5.999999999999999e-09,0.8,5.999999999999999e-09,0.8,5.999999999999999e-09,4.851423532628655e-09
6.000005214842999e-09,0.8,6.000005214842999e-09,0,6.000005214842999e-09,0.7999798605061837,6.000005214842999e-09,-3.047158870247002e-05,6.000005214842999e-09,0.8,6.000005214842999e-09,0.7995828125000418,6.000005214842999e-09,-8.866163861091757e-07
6.000015644530999e-09,0.8,6.000015644530999e-09,0,6.000015644530999e-09,0.7999333849602166,6.000015644530999e-09,-0.0001021664366737253,6.000015644530999e-09,0.8,6.000015644530999e-09,0.7987484375001253,6.000015644530999e-09,-1.519308995488314e-06
6.000020859373999e-09,0.8,6.000020859373999e-09,0,6.000020859373999e-09,0.7999086704996067,6.000020859373999e-09,-0.0001406330750233603,6.000020859373999e-09,0.8,6.000020859373999e-09,0.798331250000167,6.000020859373999e-09,-1.312319618533051e-06
6.000031289062e-09,0.8,6.000031289062e-09,0,6.000031289062e-09,0.7998615293280938,6.000031289062e-09,-0.0002128044109879091,6.000031289062e-09,0.8,6.000031289062e-09,0.7974968750002505,6.000031289062e-09,-1.305025606621841e-06
6.000052148436999e-09,0.8,6.000052148436999e-09,0,6.000052148436999e-09,0.7997669421990439,6.000052148436999e-09,-0.0003580528846817984,6.000052148436999e-09,0.8,6.000052148436999e-09,0.7958281250004174,6.000052148436999e-09,-1.313592894160752e-06
6.000093867186999e-09,0.8,6.000093867186999e-09,0,6.000093867186999e-09,0.7995794142195881,6.000093867186999e-09,-0.0006446741076855767,6.000093867186999e-09,0.8,6.000093867186999e-09,0.7924906250007514,6.000093867186999e-09,-1.292560029901179e-06
6.000177304686999e-09,0.8,6.000177304686999e-09,0,6.000177304686999e-09,0.7992086186939527,6.000177304686999e-09,-0.001207348636656512,6.000177304686999e-09,0.8,6.000177304686999e-09,0.7858156250014193,6.000177304686999e-09,-1.292153885116205e-06
6.000344179687e-09,0.8,6.000344179687e-09,0,6.000344179687e-09,0.7984854640029867,6.000344179687e-09,-0.002288742392899376,6.000344179687e-09,0.8,6.000344179687e-09,0.7724656250027552,6.000344179687e-09,-1.251797247829857e-06
6.000677929686999e-09,0.8,6.000677929686999e-09,0,6.000677929686999e-09,0.7971066686452548,6.000677929686999e-09,-0.004294523988869607,6.000677929686999e-09,0.8,6.000677929686999e-09,0.7457656250054269,6.000677929686999e-09,-1.221122934205489e-06
6.001345429687e-09,0.8,6.001345429687e-09,0,6.001345429687e-09,0.7945934732956913,6.001345429687e-09,-0.007768270538925158,6.001345429687e-09,0.8,6.001345429687e-09,0.6923656250107701,6.001345429687e-09,-1.139593170894858e-06
6.002680429686999e-09,0.8,6.002680429686999e-09,0,6.002680429686999e-09,0.7904164276193519,6.002680429686999e-09,-0.01295521156308495,6.002680429686999e-09,0.8,6.002680429686999e-09,0.5855656250214567,6.002680429686999e-09,-1.047483511336302e-06
6.005350429685999e-09,0.8,6.005350429685999e-09,0,6.005350429685999e-09,0.7849774509207925,6.005350429685999e-09,-0.01717233048201781,6.005350429685999e-09,0.8,6.005350429685999e-09,0.3719656250428298,6.005350429685999e-09,-7.788996177049991e-07
