/BL (modelFiles=gpdk045.scs:ss) X,/BL (modelFiles=gpdk045.scs:ss) Y,/BLB (modelFiles=gpdk045.scs:ss) X,/BLB (modelFiles=gpdk045.scs:ss) Y,/Q (modelFiles=gpdk045.scs:ss) X,/Q (modelFiles=gpdk045.scs:ss) Y,/QB (modelFiles=gpdk045.scs:ss) X,/QB (modelFiles=gpdk045.scs:ss) Y,/VDD (modelFiles=gpdk045.scs:ss) X,/VDD (modelFiles=gpdk045.scs:ss) Y,/WL (modelFiles=gpdk045.scs:ss) X,/WL (modelFiles=gpdk045.scs:ss) Y,/V0/PLUS (modelFiles=gpdk045.scs:ss) X,/V0/PLUS (modelFiles=gpdk045.scs:ss) Y
0,0,0,1,0,5.437110571221161e-08,0,0.9999998456222348,0,1,0,0,0,-1.892779986158059e-11
3e-11,0,3e-11,1,3e-11,5.437110880825588e-08,3e-11,0.9999998456223578,3e-11,1,3e-11,0,3e-11,-1.892773242987694e-11
8.999999999999999e-11,0,8.999999999999999e-11,1,8.999999999999999e-11,5.437110615823624e-08,8.999999999999999e-11,0.9999998456223806,8.999999999999999e-11,1,8.999999999999999e-11,0,8.999999999999999e-11,-1.892773104440991e-11
2.1e-10,0,2.1e-10,1,2.1e-10,5.437110602803165e-08,2.1e-10,0.999999845622439,2.1e-10,1,2.1e-10,0,2.1e-10,-1.892772569452311e-11
4.499999999999999e-10,0,4.499999999999999e-10,1,4.499999999999999e-10,5.437110475009343e-08,4.499999999999999e-10,0.9999998456223498,4.499999999999999e-10,1,4.499999999999999e-10,0,4.499999999999999e-10,-1.892773415300204e-11
9.299999999999999e-10,0,9.299999999999999e-10,1,9.299999999999999e-10,5.43711062946764e-08,9.299999999999999e-10,0.9999998456222545,9.299999999999999e-10,1,9.299999999999999e-10,0,9.299999999999999e-10,-1.892774239008146e-11
1.53e-09,0,1.53e-09,1,1.53e-09,5.437110582795983e-08,1.53e-09,0.9999998456225314,1.53e-09,1,1.53e-09,0,1.53e-09,-1.892771742439307e-11
1.99e-09,0,1.99e-09,1,1.99e-09,5.437110471400262e-08,1.99e-09,0.9999998456222934,1.99e-09,1,1.99e-09,0,1.99e-09,-1.892773921585368e-11
1.990083416666e-09,0.008341666666664842,1.990083416666e-09,0.9916583333333352,1.990083416666e-09,3.29663799077107e-07,1.990083416666e-09,0.9999991978405854,1.990083416666e-09,1,1.990083416666e-09,0,1.990083416666e-09,-1.162772763773922e-09
1.99025025e-09,0.02502499999999453,1.99025025e-09,0.9749750000000055,1.99025025e-09,1.047369761178097e-07,1.99025025e-09,0.9999991464543301,1.99025025e-09,1,1.99025025e-09,0,1.99025025e-09,5.959305454993605e-10
1.990583916666e-09,0.05839166666665389,1.990583916666e-09,0.9416083333333461,1.990583916666e-09,-5.835388425964714e-08,1.990583916666e-09,0.9999991476504368,1.990583916666e-09,1,1.990583916666e-09,0,1.990583916666e-09,-8.514654389209378e-10
1.991142573879e-09,0.1142573879305341,1.991142573879e-09,0.8857426120694658,1.991142573879e-09,-1.098001783143665e-07,1.991142573879e-09,0.9999991875541578,1.991142573879e-09,1,1.991142573879e-09,0,1.991142573879e-09,6.860001559079021e-10
1.992259888304e-09,0.2259888304582946,1.992259888304e-09,0.7740111695417053,1.992259888304e-09,-1.299176815407047e-07,1.992259888304e-09,0.9999992966086456,1.992259888304e-09,1,1.992259888304e-09,0,1.992259888304e-09,-7.943941706685827e-10
1.994494517155e-09,0.4494517155138156,1.994494517155e-09,0.5505482844861844,1.994494517155e-09,-6.510190753016729e-08,1.994494517155e-09,0.9999994310789735,1.994494517155e-09,1,1.994494517155e-09,0,1.994494517155e-09,7.142395460116809e-10
1.997247258577e-09,0.7247258577569078,1.997247258577e-09,0.2752741422430922,1.997247258577e-09,-1.817433629976206e-09,1.997247258577e-09,0.9999995912896181,1.997247258577e-09,1,1.997247258577e-09,0,1.997247258577e-09,-7.848333018917024e-10
2e-09,1,2e-09,0,2e-09,5.449693655700512e-08,2e-09,0.9999996715472743,2e-09,1,2e-09,0,2e-09,7.196340307944535e-10
2.000083416666e-09,1,2.000083416666e-09,0,2.000083416666e-09,-5.144416335016091e-07,2.000083416666e-09,1.000000286524838,2.000083416666e-09,1,2.000083416666e-09,0,2.000083416666e-09,6.128675612157614e-10
2.00025025e-09,1,2.00025025e-09,0,2.00025025e-09,-4.873679244177309e-07,2.00025025e-09,1.000000298464231,2.00025025e-09,1,2.00025025e-09,0,2.00025025e-09,-4.910130478182697e-10
2.000583916666e-09,1,2.000583916666e-09,0,2.000583916666e-09,-4.192634567646946e-07,2.000583916666e-09,1.000000276788582,2.000583916666e-09,1,2.000583916666e-09,0,2.000583916666e-09,5.373529096636713e-10
2.001143362465e-09,1,2.001143362465e-09,0,2.001143362465e-09,-3.383073762898961e-07,2.001143362465e-09,1.000000278795946,2.001143362465e-09,1,2.001143362465e-09,0,2.001143362465e-09,-4.615284830886664e-10
2.002262254064e-09,1,2.002262254064e-09,0,2.002262254064e-09,-2.06250417981904e-07,2.002262254064e-09,1.000000220692137,2.002262254064e-09,1,2.002262254064e-09,0,2.002262254064e-09,4.997858813816229e-10
2.004500037261e-09,1,2.004500037261e-09,0,2.004500037261e-09,-7.569878617350631e-08,2.004500037261e-09,1.000000142183815,2.004500037261e-09,1,2.004500037261e-09,0,2.004500037261e-09,-4.739839526021301e-10
2.008975603656e-09,1,2.008975603656e-09,0,2.008975603656e-09,2.671603220401668e-08,2.008975603656e-09,0.9999999732295431,2.008975603656e-09,1,2.008975603656e-09,0,2.008975603656e-09,4.663804212801938e-10
2.017926736444e-09,1,2.017926736444e-09,0,2.017926736444e-09,5.826275028043765e-08,2.017926736444e-09,0.9999998590436278,2.017926736444e-09,1,2.017926736444e-09,0,2.017926736444e-09,-4.946701993550891e-10
2.035829002022e-09,1,2.035829002022e-09,0,2.035829002022e-09,6.797544954284839e-08,2.035829002022e-09,0.9999998062725152,2.035829002022e-09,1,2.035829002022e-09,0,2.035829002022e-09,4.530769464087683e-10
2.071633533176e-09,1,2.071633533176e-09,0,2.071633533176e-09,6.508191369326084e-08,2.071633533176e-09,0.999999829314555,2.071633533176e-09,1,2.071633533176e-09,0,2.071633533176e-09,-4.955753417072833e-10
2.143242595485e-09,1,2.143242595485e-09,0,2.143242595485e-09,6.732659409182492e-08,2.143242595485e-09,0.999999809447225,2.143242595485e-09,1,2.143242595485e-09,0,2.143242595485e-09,4.52761461963981e-10
2.286460720104e-09,1,2.286460720104e-09,0,2.286460720104e-09,6.526111197420951e-08,2.286460720104e-09,0.9999998283839477,2.286460720104e-09,1,2.286460720104e-09,0,2.286460720104e-09,-4.953734526602668e-10
2.572896969341e-09,1,2.572896969341e-09,0,2.572896969341e-09,6.726336424726024e-08,2.572896969341e-09,0.999999809801553,2.572896969341e-09,1,2.572896969341e-09,0,2.572896969341e-09,4.526540242592573e-10
2.99e-09,1,2.99e-09,0,2.99e-09,6.529194840435505e-08,2.99e-09,0.9999998282070991,2.99e-09,1,2.99e-09,0,2.99e-09,-4.953115480086463e-10
2.990005213541e-09,1,2.990005213541e-09,0,2.990005213541e-09,1.836446935215703e-05,2.990005213541e-09,1.000019593487472,2.990005213541e-09,1,2.990005213541e-09,0.0005213541666691376,2.990005213541e-09,6.759349177525324e-07
2.990015640625e-09,1,2.990015640625e-09,0,2.990015640625e-09,5.789943956095329e-05,2.990015640625e-09,1.000062862724769,2.990015640625e-09,1,2.990015640625e-09,0.001564062500007413,2.990015640625e-09,1.046657419320236e-06
2.990036494791e-09,1,2.990036494791e-09,0,2.990036494791e-09,0.0001324479070914527,2.990036494791e-09,1.000147056876544,2.990036494791e-09,1,2.990036494791e-09,0.003649479166683963,2.990036494791e-09,7.835953521217188e-07
2.990078203125e-09,1,2.990078203125e-09,0,2.990078203125e-09,0.0002783222230366943,2.990078203125e-09,1.000312330640295,2.990078203125e-09,1,2.990078203125e-09,0.007820312500037063,2.990078203125e-09,9.877595244400512e-07
2.990161619791e-09,1,2.990161619791e-09,0,2.990161619791e-09,0.0005649060603144944,2.990161619791e-09,1.000638990858295,2.990161619791e-09,1,2.990161619791e-09,0.01616197916674326,2.990161619791e-09,8.190677611262603e-07
2.990328453125e-09,1,2.990328453125e-09,0,2.990328453125e-09,0.001108992825471149,2.990328453125e-09,1.00126838886201,2.990328453125e-09,1,2.990328453125e-09,0.03284531250015567,2.990328453125e-09,9.947472206919903e-07
2.990662119791e-09,1,2.990662119791e-09,0,2.990662119791e-09,0.002098576062177316,2.990662119791e-09,1.002446254244714,2.990662119791e-09,1,2.990662119791e-09,0.06621197916698048,2.990662119791e-09,8.615535418434899e-07
2.991329453125e-09,1,2.991329453125e-09,0,2.991329453125e-09,0.003729993632213257,2.991329453125e-09,1.004509179389264,2.991329453125e-09,1,2.991329453125e-09,0.1329453125006301,2.991329453125e-09,1.064282460758813e-06
2.992664119791e-09,1,2.992664119791e-09,0,2.992664119791e-09,0.00599561914759459,2.992664119791e-09,1.007732183108999,2.992664119791e-09,1,2.992664119791e-09,0.2664119791679293,2.992664119791e-09,1.006754935176932e-06
2.995333453125e-09,1,2.995333453125e-09,0,2.995333453125e-09,0.01001220291072784,2.995333453125e-09,1.011507639287088,2.995333453125e-09,1,2.995333453125e-09,0.5333453125025277,2.995333453125e-09,1.364251491719416e-06
2.997666726562e-09,1,2.997666726562e-09,0,2.997666726562e-09,0.02228614346993101,2.997666726562e-09,1.002093364845887,2.997666726562e-09,1,2.997666726562e-09,0.7666726562512639,2.997666726562e-09,-3.347783114771436e-07
2.998979737344e-09,1,2.998979737344e-09,0,2.998979737344e-09,0.0372179944219195,2.998979737344e-09,0.9813778742660934,2.998979737344e-09,1,2.998979737344e-09,0.8979737344995529,2.998979737344e-09,-4.194425388689969e-06
2.999489868672e-09,1,2.999489868672e-09,0,2.999489868672e-09,0.04555092279276764,2.999489868672e-09,0.9675490607796805,2.999489868672e-09,1,2.999489868672e-09,0.9489868672497558,2.999489868672e-09,-5.034072571887676e-06
3e-09,1,3e-09,0,3e-09,0.05564208153379986,3e-09,0.9494138136042375,3e-09,1,3e-09,0.9999999999999586,3e-09,-6.723096635806541e-06
3.000005213541e-09,1,3.000005213541e-09,0,3.000005213541e-09,0.05570781883527814,3.000005213541e-09,0.9491777209104729,3.000005213541e-09,1,3.000005213541e-09,1,3.000005213541e-09,-7.725443326908907e-06
3.000015640625e-09,1,3.000015640625e-09,0,3.000015640625e-09,0.05581897204742256,3.000015640625e-09,0.9486943565164924,3.000015640625e-09,1,3.000015640625e-09,1,3.000015640625e-09,-8.616435040876723e-06
3.000020854166e-09,1,3.000020854166e-09,0,3.000020854166e-09,0.05586872961656218,3.000020854166e-09,0.948449387688397,3.000020854166e-09,1,3.000020854166e-09,1,3.000020854166e-09,-8.414534336414051e-06
3.000023460937e-09,1,3.000023460937e-09,0,3.000023460937e-09,0.05589538646845785,3.000023460937e-09,0.9483278340984217,3.000023460937e-09,1,3.000023460937e-09,1,3.000023460937e-09,-8.377161163408722e-06
3.000028674479e-09,1,3.000028674479e-09,0,3.000028674479e-09,0.05594787598097525,3.000028674479e-09,0.9480843817383056,3.000028674479e-09,1,3.000028674479e-09,1,3.000028674479e-09,-8.403876102399533e-06
3.00003128125e-09,1,3.00003128125e-09,0,3.00003128125e-09,0.05597412120847825,3.00003128125e-09,0.9479626731587368,3.00003128125e-09,1,3.00003128125e-09,1,3.00003128125e-09,-8.389636842509033e-06
3.000036494791e-09,1,3.000036494791e-09,0,3.000036494791e-09,0.05602660851971577,3.000036494791e-09,0.947719240726711,3.000036494791e-09,1,3.000036494791e-09,1,3.000036494791e-09,-8.399310957942162e-06
3.000046921875e-09,1,3.000046921875e-09,0,3.000046921875e-09,0.05613158882613648,3.000046921875e-09,0.9472323449422566,3.000046921875e-09,1,3.000046921875e-09,1,3.000046921875e-09,-8.398088516227412e-06
3.000067776041e-09,1,3.000067776041e-09,0,3.000067776041e-09,0.05634161069857291,3.000067776041e-09,0.9462584594775841,3.000067776041e-09,1,3.000067776041e-09,1,3.000067776041e-09,-8.410653325925353e-06
3.000109484375e-09,1,3.000109484375e-09,0,3.000109484375e-09,0.05676191134629859,3.000109484375e-09,0.9443103487568507,3.000109484375e-09,1,3.000109484375e-09,1,3.000109484375e-09,-8.422441907547813e-06
3.000192901041e-09,1,3.000192901041e-09,0,3.000192901041e-09,0.05760377970952368,3.000192901041e-09,0.9404131849168201,3.000192901041e-09,1,3.000192901041e-09,1,3.000192901041e-09,-8.458152808931174e-06
3.000359734375e-09,1,3.000359734375e-09,0,3.000359734375e-09,0.05929424787210645,3.000359734375e-09,0.9326189073995605,3.000359734375e-09,1,3.000359734375e-09,1,3.000359734375e-09,-8.518552759726546e-06
3.000693401041e-09,1,3.000693401041e-09,0,3.000693401041e-09,0.06271456786629735,3.000693401041e-09,0.9170659581066488,3.000693401041e-09,1,3.000693401041e-09,1,3.000693401041e-09,-8.661461718706485e-06
3.001360734375e-09,1,3.001360734375e-09,0,3.001360734375e-09,0.06979484443762463,3.001360734375e-09,0.8863308564732408,3.001360734375e-09,1,3.001360734375e-09,1,3.001360734375e-09,-8.948920299981256e-06
3.002695401041e-09,1,3.002695401041e-09,0,3.002695401041e-09,0.08535853842312659,3.002695401041e-09,0.8266247644266151,3.002695401041e-09,1,3.002695401041e-09,1,3.002695401041e-09,-9.195829460877864e-06
3.005364734375e-09,1,3.005364734375e-09,0,3.005364734375e-09,0.1222804644865666,3.005364734375e-09,0.7097499257882689,3.005364734375e-09,1,3.005364734375e-09,1,3.005364734375e-09,-8.34765502551659e-06
3.008356544196e-09,1,3.008356544196e-09,0,3.008356544196e-09,0.163375047098064,3.008356544196e-09,0.5758226436565993,3.008356544196e-09,1,3.008356544196e-09,1,3.008356544196e-09,-7.533997104712914e-06
3.011473117631e-09,1,3.011473117631e-09,0,3.011473117631e-09,0.1962583344178549,3.011473117631e-09,0.432415276288327,3.011473117631e-09,1,3.011473117631e-09,1,3.011473117631e-09,-7.12474525189271e-06
3.014956594001e-09,1,3.014956594001e-09,0,3.014956594001e-09,0.2270787046101973,3.014956594001e-09,0.2850510416049103,3.014956594001e-09,1,3.014956594001e-09,1,3.014956594001e-09,-7.801592911191176e-06
3.018075991096e-09,1,3.018075991096e-09,0,3.018075991096e-09,0.2646211235508145,3.018075991096e-09,0.1805283151784285,3.018075991096e-09,1,3.018075991096e-09,1,3.018075991096e-09,-9.076381833284693e-06
3.021205753395e-09,1,3.021205753395e-09,0,3.021205753395e-09,0.3217974207658313,3.021205753395e-09,0.1087791676255803,3.021205753395e-09,1,3.021205753395e-09,1,3.021205753395e-09,-9.836827696347677e-06
3.024785380097e-09,1,3.024785380097e-09,0,3.024785380097e-09,0.4095719332719426,3.024785380097e-09,0.06254961690672964,3.024785380097e-09,1,3.024785380097e-09,1,3.024785380097e-09,-1.000540687393074e-05
3.029680324655e-09,1,3.029680324655e-09,0,3.029680324655e-09,0.5514865440023561,3.029680324655e-09,0.03452746906054262,3.029680324655e-09,1,3.029680324655e-09,1,3.029680324655e-09,-9.818582943745238e-06
3.033206200655e-09,1,3.033206200655e-09,0,3.033206200655e-09,0.6541210504765764,3.033206200655e-09,0.02648088155995191,3.033206200655e-09,1,3.033206200655e-09,1,3.033206200655e-09,-9.334451675824986e-06
3.03704742173e-09,1,3.03704742173e-09,0,3.03704742173e-09,0.7549610782613648,3.03704742173e-09,0.02058311185618552,3.03704742173e-09,1,3.03704742173e-09,1,3.03704742173e-09,-8.628189334821431e-06
3.041247583222e-09,1,3.041247583222e-09,0,3.041247583222e-09,0.8469660665740459,3.041247583222e-09,0.01466355832519198,3.041247583222e-09,1,3.041247583222e-09,1,3.041247583222e-09,-7.032223182454705e-06
3.046931450663e-09,1,3.046931450663e-09,0,3.046931450663e-09,0.9306914695895088,3.046931450663e-09,0.007781407645236003,3.046931450663e-09,1,3.046931450663e-09,1,3.046931450663e-09,-3.965170738153536e-06
3.052574034939e-09,1,3.052574034939e-09,0,3.052574034939e-09,0.9711017005829514,3.052574034939e-09,0.003421824670758115,3.052574034939e-09,1,3.052574034939e-09,1,3.052574034939e-09,-1.691243145165553e-06
3.057353295548e-09,1,3.057353295548e-09,0,3.057353295548e-09,0.9863975562255373,3.057353295548e-09,0.001629574826003851,3.057353295548e-09,1,3.057353295548e-09,1,3.057353295548e-09,-9.113373826088433e-07
3.06249363513e-09,1,3.06249363513e-09,0,3.06249363513e-09,0.9940680833783649,3.06249363513e-09,0.0007189629046445288,3.06249363513e-09,1,3.06249363513e-09,1,3.06249363513e-09,-3.141927278722333e-07
3.068157302649e-09,1,3.068157302649e-09,0,3.068157302649e-09,0.9976717887490402,3.068157302649e-09,0.0002839231873004934,3.068157302649e-09,1,3.068157302649e-09,1,3.068157302649e-09,-2.110311369855136e-07
3.075566617616e-09,1,3.075566617616e-09,0,3.075566617616e-09,0.9993682373504982,3.075566617616e-09,7.734512341621578e-05,3.075566617616e-09,1,3.075566617616e-09,1,3.075566617616e-09,2.16086115293685e-08
3.085279196186e-09,1,3.085279196186e-09,0,3.085279196186e-09,0.9999102154066372,3.085279196186e-09,1.090934529666403e-05,3.085279196186e-09,1,3.085279196186e-09,1,3.085279196186e-09,-6.788929729082717e-08
3.099072055516e-09,1,3.099072055516e-09,0,3.099072055516e-09,1.000003659230651,3.099072055516e-09,-3.077574671222488e-07,3.099072055516e-09,1,3.099072055516e-09,1,3.099072055516e-09,6.226882868926758e-08
3.120067027827e-09,1,3.120067027827e-09,0,3.120067027827e-09,0.9999986799425746,3.120067027827e-09,8.045270056589629e-08,3.120067027827e-09,1,3.120067027827e-09,1,3.120067027827e-09,-6.212486815250359e-08
3.158521661471e-09,1,3.158521661471e-09,0,3.158521661471e-09,1.000000606563274,3.158521661471e-09,3.815571987035054e-08,3.158521661471e-09,1,3.158521661471e-09,1,3.158521661471e-09,6.205454997284401e-08
3.235430928759e-09,1,3.235430928759e-09,0,3.235430928759e-09,0.999999208147634,3.235430928759e-09,2.069697014835686e-08,3.235430928759e-09,1,3.235430928759e-09,1,3.235430928759e-09,-6.208124859850118e-08
3.389249463334e-09,1,3.389249463334e-09,0,3.389249463334e-09,1.000000453340592,3.389249463334e-09,5.604456704055146e-08,3.389249463334e-09,1,3.389249463334e-09,1,3.389249463334e-09,6.204037611652584e-08
3.696886532486e-09,1,3.696886532486e-09,0,3.696886532486e-09,0.9999992529286119,3.696886532486e-09,1.389822680472166e-08,3.696886532486e-09,1,3.696886532486e-09,1,3.696886532486e-09,-6.207667315899905e-08
4.296886532486e-09,1,4.296886532486e-09,0,4.296886532486e-09,1.000000447910387,4.296886532486e-09,5.884868646185023e-08,4.296886532486e-09,1,4.296886532486e-09,1,4.296886532486e-09,6.203958688139346e-08
4.896886532485999e-09,1,4.896886532485999e-09,0,4.896886532485999e-09,0.9999992489747451,4.896886532485999e-09,1.221355914886431e-08,4.896886532485999e-09,1,4.896886532485999e-09,1,4.896886532485999e-09,-6.207683050471778e-08
5.496886532486e-09,1,5.496886532486e-09,0,5.496886532486e-09,1.000000438737525,5.496886532486e-09,6.079892838539452e-08,5.496886532486e-09,1,5.496886532486e-09,1,5.496886532486e-09,6.203854969928107e-08
5.999999999999999e-09,1,5.999999999999999e-09,0,5.999999999999999e-09,0.9999992717421355,5.999999999999999e-09,1.008388148522207e-08,5.999999999999999e-09,1,5.999999999999999e-09,1,5.999999999999999e-09,-6.20744973161735e-08
6.000005213541e-09,1,6.000005213541e-09,0,6.000005213541e-09,0.9999745584691782,6.000005213541e-09,-3.856026521092426e-05,6.000005213541e-09,1,6.000005213541e-09,0.9994786458333722,6.000005213541e-09,-1.211943533933891e-06
6.000015640625e-09,1,6.000015640625e-09,0,6.000015640625e-09,0.9999163094566899,6.000015640625e-09,-0.0001323217770170099,6.000015640625e-09,1,6.000015640625e-09,0.9984359375001166,6.000015640625e-09,-2.133649568818344e-06
6.000036494791e-09,1,6.000036494791e-09,0,6.000036494791e-09,0.9997962100490376,6.000036494791e-09,-0.0003254108685642951,6.000036494791e-09,1,6.000036494791e-09,0.9963505208336054,6.000036494791e-09,-1.697633349297589e-06
6.000078203124e-09,1,6.000078203124e-09,0,6.000078203124e-09,0.9995644729279792,6.000078203124e-09,-0.0006939892021765692,6.000078203124e-09,1,6.000078203124e-09,0.9921796875005831,6.000078203124e-09,-1.94984624261685e-06
6.000161619790999e-09,1,6.000161619790999e-09,0,6.000161619790999e-09,0.9991098513896051,6.000161619790999e-09,-0.001413095335372683,6.000161619790999e-09,1,6.000161619790999e-09,0.9838380208345382,6.000161619790999e-09,-1.698571896087573e-06
6.000328453123999e-09,1,6.000328453123999e-09,0,6.000328453123999e-09,0.9982519681715296,6.000328453123999e-09,-0.002744684577748309,6.000328453123999e-09,1,6.000328453123999e-09,0.9671546875024486,6.000328453123999e-09,-1.833443410885892e-06
6.000662119790999e-09,1,6.000662119790999e-09,0,6.000662119790999e-09,0.9967033811176785,6.000662119790999e-09,-0.005072849549109646,6.000662119790999e-09,1,6.000662119790999e-09,0.9337880208382694,6.000662119790999e-09,-1.554022558086771e-06
6.001329453123999e-09,1,6.001329453123999e-09,0,6.001329453123999e-09,0.9941575293754435,6.001329453123999e-09,-0.008682546916815944,6.001329453123999e-09,1,6.001329453123999e-09,0.867054687509911,6.001329453123999e-09,-1.619933958449508e-06
