/BL (modelFiles=gpdk045.scs:ss) X,/BL (modelFiles=gpdk045.scs:ss) Y,/BLB (modelFiles=gpdk045.scs:ss) X,/BLB (modelFiles=gpdk045.scs:ss) Y,/Q (modelFiles=gpdk045.scs:ss) X,/Q (modelFiles=gpdk045.scs:ss) Y,/QB (modelFiles=gpdk045.scs:ss) X,/QB (modelFiles=gpdk045.scs:ss) Y,/VDD (modelFiles=gpdk045.scs:ss) X,/VDD (modelFiles=gpdk045.scs:ss) Y,/WL (modelFiles=gpdk045.scs:ss) X,/WL (modelFiles=gpdk045.scs:ss) Y,/V0/PLUS (modelFiles=gpdk045.scs:ss) X,/V0/PLUS (modelFiles=gpdk045.scs:ss) Y
0,0,0,0.8,0,5.762006695000497e-08,0,0.7999998452657394,0,0.8,0,0,0,-1.135613662768454e-11
3.2e-11,0,3.2e-11,0.8,3.2e-11,5.762007375051681e-08,3.2e-11,0.7999998452658942,3.2e-11,0.8,3.2e-11,0,3.2e-11,-1.13560832031405e-11
9.599999999999999e-11,0,9.599999999999999e-11,0.8,9.599999999999999e-11,5.762006863953084e-08,9.599999999999999e-11,0.7999998452659393,9.599999999999999e-11,0.8,9.599999999999999e-11,0,9.599999999999999e-11,-1.135608173209118e-11
2.24e-10,0,2.24e-10,0.8,2.24e-10,5.762007102031916e-08,2.24e-10,0.7999998452661663,2.24e-10,0.8,2.24e-10,0,2.24e-10,-1.135606950667996e-11
4.8e-10,0,4.8e-10,0.8,4.8e-10,5.762005712217144e-08,4.8e-10,0.7999998452656774,4.8e-10,0.8,4.8e-10,0,4.8e-10,-1.13560968021219e-11
9.919999999999999e-10,0,9.919999999999999e-10,0.8,9.919999999999999e-10,5.762007883588249e-08,9.919999999999999e-10,0.7999998452660714,9.919999999999999e-10,0.8,9.919999999999999e-10,0,9.919999999999999e-10,-1.135607333227547e-11
1.632e-09,0,1.632e-09,0.8,1.632e-09,5.762005651554349e-08,1.632e-09,0.7999998452662584,1.632e-09,0.8,1.632e-09,0,1.632e-09,-1.135606689558822e-11
1.99e-09,0,1.99e-09,0.8,1.99e-09,5.762007371498712e-08,1.99e-09,0.7999998452659389,1.99e-09,0.8,1.99e-09,0,1.99e-09,-1.13560806551226e-11
1.990083437499e-09,0.006674999999993557,1.990083437499e-09,0.7933250000000065,1.990083437499e-09,2.697700585170089e-07,1.990083437499e-09,0.7999993273003408,1.990083437499e-09,0.8,1.990083437499e-09,0,1.990083437499e-09,-9.760368707514729e-10
1.990250312499e-09,0.02002499999998067,1.990250312499e-09,0.7799750000000194,1.990250312499e-09,5.501722197838574e-08,1.990250312499e-09,0.7999992696306575,1.990250312499e-09,0.8,1.990250312499e-09,0,1.990250312499e-09,4.244963476403912e-10
1.990584062499e-09,0.0467249999999549,1.990584062499e-09,0.7532750000000451,1.990584062499e-09,-1.274351361005324e-07,1.990584062499e-09,0.7999992469532119,1.990584062499e-09,0.8,1.990584062499e-09,0,1.990584062499e-09,-6.560246281131843e-10
1.991143171025e-09,0.0914536820509977,1.991143171025e-09,0.7085463179490024,1.991143171025e-09,-1.99198815195649e-07,1.991143171025e-09,0.799999249263604,1.991143171025e-09,0.8,1.991143171025e-09,0,1.991143171025e-09,5.321056127044552e-10
1.992261388076e-09,0.1809110461530833,1.992261388076e-09,0.6190889538469168,1.992261388076e-09,-2.361649008222699e-07,1.992261388076e-09,0.7999993048037345,1.992261388076e-09,0.8,1.992261388076e-09,0,1.992261388076e-09,-5.949738679443223e-10
1.994497822179e-09,0.3598257743572545,1.994497822179e-09,0.4401742256427456,1.994497822179e-09,-2.150900084066217e-07,1.994497822179e-09,0.7999993530857117,1.994497822179e-09,0.8,1.994497822179e-09,0,1.994497822179e-09,5.496876624971693e-10
1.997248911089e-09,0.5799128871786272,1.997248911089e-09,0.2200871128213728,1.997248911089e-09,-1.380680976562048e-07,1.997248911089e-09,0.7999994801727215,1.997248911089e-09,0.8,1.997248911089e-09,0,1.997248911089e-09,-5.896395879482811e-10
2e-09,0.8,2e-09,0,2e-09,-5.065021439067359e-08,2e-09,0.7999995600225832,2e-09,0.8,2e-09,0,2e-09,5.495147526282927e-10
2.0000834375e-09,0.8,2.0000834375e-09,0,2.0000834375e-09,-5.305349759396723e-07,2.0000834375e-09,0.8000000289921678,2.0000834375e-09,0.8,2.0000834375e-09,0,2.0000834375e-09,4.839121043897714e-10
2.0002503125e-09,0.8,2.0002503125e-09,0,2.0002503125e-09,-5.211729417409175e-07,2.0002503125e-09,0.8000000450877245,2.0002503125e-09,0.8,2.0002503125e-09,0,2.0002503125e-09,-4.159237738176008e-10
2.000584062499e-09,0.8,2.000584062499e-09,0,2.000584062499e-09,-4.750421780903719e-07,2.000584062499e-09,0.8000000375667111,2.000584062499e-09,0.8,2.000584062499e-09,0,2.000584062499e-09,4.156103553750045e-10
2.001142954313e-09,0.8,2.001142954313e-09,0,2.001142954313e-09,-4.288631879504775e-07,2.001142954313e-09,0.8000000590111364,2.001142954313e-09,0.8,2.001142954313e-09,0,2.001142954313e-09,-3.811646692803933e-10
2.002260737941e-09,0.8,2.002260737941e-09,0,2.002260737941e-09,-3.326118464119459e-07,2.002260737941e-09,0.8000000439463684,2.002260737941e-09,0.8,2.002260737941e-09,0,2.002260737941e-09,3.91033809343127e-10
2.004496305197e-09,0.8,2.004496305197e-09,0,2.004496305197e-09,-2.118601919571414e-07,2.004496305197e-09,0.8000000487516244,2.004496305197e-09,0.8,2.004496305197e-09,0,2.004496305197e-09,-3.786831414205435e-10
2.008967439709e-09,0.8,2.008967439709e-09,0,2.008967439709e-09,-5.497172968225148e-08,2.008967439709e-09,0.7999999887239104,2.008967439709e-09,0.8,2.008967439709e-09,0,2.008967439709e-09,3.760552925066126e-10
2.017909708733e-09,0.8,2.017909708733e-09,0,2.017909708733e-09,3.849961328299567e-08,2.017909708733e-09,0.799999913582249,2.017909708733e-09,0.8,2.017909708733e-09,0,2.017909708733e-09,-3.882047843058872e-10
2.03579424678e-09,0.8,2.03579424678e-09,0,2.03579424678e-09,7.792891490047435e-08,2.03579424678e-09,0.7999998143723577,2.03579424678e-09,0.8,2.03579424678e-09,0,2.03579424678e-09,3.653314530921788e-10
2.071563322875e-09,0.8,2.071563322875e-09,0,2.071563322875e-09,7.70420265505284e-08,2.071563322875e-09,0.7999998093655538,2.071563322875e-09,0.8,2.071563322875e-09,0,2.071563322875e-09,-3.914038488742078e-10
2.143101475064e-09,0.8,2.143101475064e-09,0,2.143101475064e-09,8.159014050907045e-08,2.143101475064e-09,0.7999997998236894,2.143101475064e-09,0.8,2.143101475064e-09,0,2.143101475064e-09,3.643515071852813e-10
2.286177779443e-09,0.8,2.286177779443e-09,0,2.286177779443e-09,7.667894378100423e-08,2.286177779443e-09,0.799999811440038,2.286177779443e-09,0.8,2.286177779443e-09,0,2.286177779443e-09,-3.911058313609757e-10
2.572330388201e-09,0.8,2.572330388201e-09,0,2.572330388201e-09,8.169084392707106e-08,2.572330388201e-09,0.7999997991495612,2.572330388201e-09,0.8,2.572330388201e-09,0,2.572330388201e-09,3.642167552942014e-10
2.99e-09,0.8,2.99e-09,0,2.99e-09,7.664136730510673e-08,2.99e-09,0.7999998117388536,2.99e-09,0.8,2.99e-09,0,2.99e-09,-3.910329136072464e-10
2.990005214843e-09,0.8,2.990005214843e-09,0,2.990005214843e-09,1.404410021508185e-05,2.990005214843e-09,0.8000148222270672,2.990005214843e-09,0.8,2.990005214843e-09,0.0004171874999913255,2.990005214843e-09,6.04586325621458e-07
2.990015644531e-09,0.8,2.990015644531e-09,0,2.990015644531e-09,4.467590326883261e-05,2.990015644531e-09,0.8000480335454133,2.990015644531e-09,0.8,2.990015644531e-09,0.001251562499973977,2.990015644531e-09,9.540563839699694e-07
2.990036503906e-09,0.8,2.990036503906e-09,0,2.990036503906e-09,0.0001035896092135844,2.990036503906e-09,0.8001134722957202,2.990036503906e-09,0.8,2.990036503906e-09,0.002920312499939279,2.990036503906e-09,7.240310643148452e-07
2.990078222656e-09,0.8,2.990078222656e-09,0,2.990078222656e-09,0.0002195550284890443,2.990078222656e-09,0.8002425878177195,2.990078222656e-09,0.8,2.990078222656e-09,0.006257812499869883,2.990078222656e-09,9.000293499218353e-07
2.990161660156e-09,0.8,2.990161660156e-09,0,2.990161660156e-09,0.00045038901360604,2.990161660156e-09,0.800499816507574,2.990161660156e-09,0.8,2.990161660156e-09,0.01293281249973109,2.990161660156e-09,7.503417719639563e-07
2.990328535156e-09,0.8,2.990328535156e-09,0,2.990328535156e-09,0.0009003599002063215,2.990328535156e-09,0.801003891660245,2.990328535156e-09,0.8,2.990328535156e-09,0.02628281249945351,2.990328535156e-09,8.964814600982967e-07
2.990662285156e-09,0.8,2.990662285156e-09,0,2.990662285156e-09,0.001762405989150187,2.990662285156e-09,0.8019782142705311,2.990662285156e-09,0.8,2.990662285156e-09,0.05298281249889835,2.990662285156e-09,7.68555564314751e-07
2.991329785156e-09,0.8,2.991329785156e-09,0,2.991329785156e-09,0.00333712441168195,2.991329785156e-09,0.8037938642459953,2.991329785156e-09,0.8,2.991329785156e-09,0.106382812497788,2.991329785156e-09,9.199690102174163e-07
2.992664785156e-09,0.8,2.992664785156e-09,0,2.992664785156e-09,0.005978441116380444,2.992664785156e-09,0.8069650145741504,2.992664785156e-09,0.8,2.992664785156e-09,0.2131828124955674,2.992664785156e-09,8.215507757710325e-07
2.995334785156e-09,0.8,2.995334785156e-09,0,2.995334785156e-09,0.01022683180572857,2.995334785156e-09,0.8119062113587647,2.995334785156e-09,0.8,2.995334785156e-09,0.426782812491126,2.995334785156e-09,1.067462879404383e-06
2.997667392578e-09,0.8,2.997667392578e-09,0,2.997667392578e-09,0.01634510855569386,2.997667392578e-09,0.8136349063859564,2.997667392578e-09,0.8,2.997667392578e-09,0.613391406245563,2.997667392578e-09,1.015337028805472e-06
2.998833696289e-09,0.8,2.998833696289e-09,0,2.998833696289e-09,0.02212847219960559,2.998833696289e-09,0.8111813532697763,2.998833696289e-09,0.8,2.998833696289e-09,0.7066957031227981,2.998833696289e-09,6.367651980122831e-07
3e-09,0.8,3e-09,0,3e-09,0.03166140848290762,3e-09,0.8018038477660295,3e-09,0.8,3e-09,0.8,3e-09,-7.338878419656486e-07
3.000005214843e-09,0.8,3.000005214843e-09,0,3.000005214843e-09,0.03168147302626738,3.000005214843e-09,0.8017227201278654,3.000005214843e-09,0.8,3.000005214843e-09,0.8,3.000005214843e-09,-1.729207238343638e-06
3.000007822265e-09,0.8,3.000007822265e-09,0,3.000007822265e-09,0.03168941794559607,3.000007822265e-09,0.8016809602531118,3.000007822265e-09,0.8,3.000007822265e-09,0.8,3.000007822265e-09,-2.12399964596651e-06
3.000013037109e-09,0.8,3.000013037109e-09,0,3.000013037109e-09,0.031700789545636,3.000013037109e-09,0.8015947407216182,3.000013037109e-09,0.8,3.000013037109e-09,0.8,3.000013037109e-09,-2.344385508579315e-06
3.000015644531e-09,0.8,3.000015644531e-09,0,3.000015644531e-09,0.03170632176635824,3.000015644531e-09,0.8015514754438627,3.000015644531e-09,0.8,3.000015644531e-09,0.8,3.000015644531e-09,-2.324220471767061e-06
3.000020859375e-09,0.8,3.000020859375e-09,0,3.000020859375e-09,0.03171752301622609,3.000020859375e-09,0.8014650121064497,3.000020859375e-09,0.8,3.000020859375e-09,0.8,3.000020859375e-09,-2.336639794149777e-06
3.000031289062e-09,0.8,3.000031289062e-09,0,3.000031289062e-09,0.03174011889377477,3.000031289062e-09,0.8012923229682414,3.000031289062e-09,0.8,3.000031289062e-09,0.8,3.000031289062e-09,-2.33373640172547e-06
3.000052148437e-09,0.8,3.000052148437e-09,0,3.000052148437e-09,0.03178554610578043,3.000052148437e-09,0.800947545849376,3.000052148437e-09,0.8,3.000052148437e-09,0.8,3.000052148437e-09,-2.351479098941002e-06
3.000093867187e-09,0.8,3.000093867187e-09,0,3.000093867187e-09,0.031877254816854,3.000093867187e-09,0.8002602165691675,3.000093867187e-09,0.8,3.000093867187e-09,0.8,3.000093867187e-09,-2.369482540447044e-06
3.000177304687e-09,0.8,3.000177304687e-09,0,3.000177304687e-09,0.03207807612655076,3.000177304687e-09,0.7989733972663812,3.000177304687e-09,0.8,3.000177304687e-09,0.8,3.000177304687e-09,-2.934330791683178e-06
3.000344179687e-09,0.8,3.000344179687e-09,0,3.000344179687e-09,0.03248879612056337,3.000344179687e-09,0.7964526391387655,3.000344179687e-09,0.8,3.000344179687e-09,0.8,3.000344179687e-09,-2.588173852455503e-06
3.000677929687e-09,0.8,3.000677929687e-09,0,3.000677929687e-09,0.03333387703056615,3.000677929687e-09,0.7914589591423443,3.000677929687e-09,0.8,3.000677929687e-09,0.8,3.000677929687e-09,-3.036839643516595e-06
3.001345429687e-09,0.8,3.001345429687e-09,0,3.001345429687e-09,0.03509774705420039,3.001345429687e-09,0.7816185231898155,3.001345429687e-09,0.8,3.001345429687e-09,0.8,3.001345429687e-09,-2.775677894909344e-06
3.002680429687e-09,0.8,3.002680429687e-09,0,3.002680429687e-09,0.03890452904880706,3.002680429687e-09,0.7623956277600032,3.002680429687e-09,0.8,3.002680429687e-09,0.8,3.002680429687e-09,-3.340917562955239e-06
3.005350429687e-09,0.8,3.005350429687e-09,0,3.005350429687e-09,0.04745968425332837,3.005350429687e-09,0.7256637697890328,3.005350429687e-09,0.8,3.005350429687e-09,0.8,3.005350429687e-09,-3.254964536787702e-06
3.010690429688e-09,0.8,3.010690429688e-09,0,3.010690429688e-09,0.06690853792978643,3.010690429688e-09,0.6579029847040003,3.010690429688e-09,0.8,3.010690429688e-09,0.8,3.010690429688e-09,-3.876522061146656e-06
3.018854721438e-09,0.8,3.018854721438e-09,0,3.018854721438e-09,0.09611136631200648,3.018854721438e-09,0.5580068978118539,3.018854721438e-09,0.8,3.018854721438e-09,0.8,3.018854721438e-09,-3.231769347682098e-06
3.025663926595e-09,0.8,3.025663926595e-09,0,3.025663926595e-09,0.1155958119889724,3.025663926595e-09,0.4729386938756715,3.025663926595e-09,0.8,3.025663926595e-09,0.8,3.025663926595e-09,-3.42714183789945e-06
3.034865555331e-09,0.8,3.034865555331e-09,0,3.034865555331e-09,0.1344936014673337,3.034865555331e-09,0.3605022978471328,3.034865555331e-09,0.8,3.034865555331e-09,0.8,3.034865555331e-09,-2.812502998022109e-06
3.045980638225e-09,0.8,3.045980638225e-09,0,3.045980638225e-09,0.1552032167127263,3.045980638225e-09,0.2404255679615595,3.045980638225e-09,0.8,3.045980638225e-09,0.8,3.045980638225e-09,-3.172677828069153e-06
3.056002360747e-09,0.8,3.056002360747e-09,0,3.056002360747e-09,0.1860113261355774,3.056002360747e-09,0.1520977235882514,3.056002360747e-09,0.8,3.056002360747e-09,0.8,3.056002360747e-09,-3.181222062662618e-06
3.06562063205e-09,0.8,3.06562063205e-09,0,3.06562063205e-09,0.2428790358592802,3.06562063205e-09,0.08828838161625691,3.06562063205e-09,0.8,3.06562063205e-09,0.8,3.06562063205e-09,-4.056505078264633e-06
3.074455072747e-09,0.8,3.074455072747e-09,0,3.074455072747e-09,0.3263719737287678,3.074455072747e-09,0.05221183929443467,3.074455072747e-09,0.8,3.074455072747e-09,0.8,3.074455072747e-09,-3.84011833580116e-06
3.085013786839e-09,0.8,3.085013786839e-09,0,3.085013786839e-09,0.4524099558645829,3.085013786839e-09,0.03222138623894709,3.085013786839e-09,0.8,3.085013786839e-09,0.8,3.085013786839e-09,-4.125128291446499e-06
3.094641702011e-09,0.8,3.094641702011e-09,0,3.094641702011e-09,0.5680751838018914,3.094641702011e-09,0.02402853591115345,3.094641702011e-09,0.8,3.094641702011e-09,0.8,3.094641702011e-09,-3.471178584527551e-06
3.102340241607e-09,0.8,3.102340241607e-09,0,3.102340241607e-09,0.6487257203562617,3.102340241607e-09,0.01874345676757971,3.102340241607e-09,0.8,3.102340241607e-09,0.8,3.102340241607e-09,-3.461453039999082e-06
3.110723916872e-09,0.8,3.110723916872e-09,0,3.110723916872e-09,0.7161249645293828,3.110723916872e-09,0.01258185554186543,3.110723916872e-09,0.8,3.110723916872e-09,0.8,3.110723916872e-09,-2.214283233683954e-06
3.120009895266e-09,0.8,3.120009895266e-09,0,3.120009895266e-09,0.7610509197918561,3.120009895266e-09,0.006523593294713912,3.120009895266e-09,0.8,3.120009895266e-09,0.8,3.120009895266e-09,-1.468506235272127e-06
3.131876733042e-09,0.8,3.131876733042e-09,0,3.131876733042e-09,0.786552326962256,3.131876733042e-09,0.002173304396129253,3.131876733042e-09,0.8,3.131876733042e-09,0.8,3.131876733042e-09,-2.813182657039035e-07
3.142098246377e-09,0.8,3.142098246377e-09,0,3.142098246377e-09,0.7946520680793768,3.142098246377e-09,0.0008437452355477978,3.142098246377e-09,0.8,3.142098246377e-09,0.8,3.142098246377e-09,-3.765178240415242e-07
3.151871793061e-09,0.8,3.151871793061e-09,0,3.151871793061e-09,0.797803981247157,3.151871793061e-09,0.0003445125941676259,3.151871793061e-09,0.8,3.151871793061e-09,0.8,3.151871793061e-09,1.080855957687806e-07
3.163671683517e-09,0.8,3.163671683517e-09,0,3.163671683517e-09,0.7992814549165798,3.163671683517e-09,0.0001131110106737249,3.163671683517e-09,0.8,3.163671683517e-09,0.8,3.163671683517e-09,-2.124647154826088e-07
3.179965331995e-09,0.8,3.179965331995e-09,0,3.179965331995e-09,0.7998734085780207,3.179965331995e-09,1.906405673284123e-05,3.179965331995e-09,0.8,3.179965331995e-09,0.8,3.179965331995e-09,1.820848083418091e-07
3.203085644339e-09,0.8,3.203085644339e-09,0,3.203085644339e-09,0.8000000719098499,3.203085644339e-09,7.23707155203435e-07,3.203085644339e-09,0.8,3.203085644339e-09,0.8,3.203085644339e-09,-1.866466182860894e-07
3.237831425277e-09,0.8,3.237831425277e-09,0,3.237831425277e-09,0.7999997601358413,3.237831425277e-09,-6.658726447241354e-07,3.237831425277e-09,0.8,3.237831425277e-09,0.8,3.237831425277e-09,1.866110051734295e-07
3.297257957783e-09,0.8,3.297257957783e-09,0,3.297257957783e-09,0.7999999937529174,3.297257957783e-09,7.369739840260797e-07,3.297257957783e-09,0.8,3.297257957783e-09,0.8,3.297257957783e-09,-1.866244120055224e-07
3.416111022793999e-09,0.8,3.416111022793999e-09,0,3.416111022793999e-09,0.7999996905810016,3.416111022793999e-09,-6.695013425289814e-07,3.416111022793999e-09,0.8,3.416111022793999e-09,0.8,3.416111022793999e-09,1.865979937692494e-07
3.653817152818e-09,0.8,3.653817152818e-09,0,3.653817152818e-09,0.8000000079875791,3.653817152818e-09,7.737777906518823e-07,3.653817152818e-09,0.8,3.653817152818e-09,0.8,3.653817152818e-09,-1.866185396705367e-07
4.129229412864e-09,0.8,4.129229412864e-09,0,4.129229412864e-09,0.7999996912384866,4.129229412864e-09,-7.401330121676961e-07,4.129229412864e-09,0.8,4.129229412864e-09,0.8,4.129229412864e-09,1.865953702111358e-07
4.769229412863999e-09,0.8,4.769229412863999e-09,0,4.769229412863999e-09,0.8000000026255405,4.769229412863999e-09,8.581503482254024e-07,4.769229412863999e-09,0.8,4.769229412863999e-09,0.8,4.769229412863999e-09,-1.866172096604529e-07
5.409229412864e-09,0.8,5.409229412864e-09,0,5.409229412864e-09,0.799999690608054,5.409229412864e-09,-7.863574976264592e-07,5.409229412864e-09,0.8,5.409229412864e-09,0.8,5.409229412864e-09,1.865939210723914e-07
5.999999999999999e-09,0.8,5.999999999999999e-09,0,5.999999999999999e-09,0.8000000094123663,5.999999999999999e-09,8.594280935979544e-07,5.999999999999999e-09,0.8,5.999999999999999e-09,0.8,5.999999999999999e-09,-1.86615306460779e-07
6.000005214842999e-09,0.8,6.000005214842999e-09,0,6.000005214842999e-09,0.7999814021778957,6.000005214842999e-09,-2.759261196572555e-05,6.000005214842999e-09,0.8,6.000005214842999e-09,0.7995828125000418,6.000005214842999e-09,-1.031321956739e-06
6.000015644530999e-09,0.8,6.000015644530999e-09,0,6.000015644530999e-09,0.7999387959455829,6.000015644530999e-09,-9.498313508512005e-05,6.000015644530999e-09,0.8,6.000015644530999e-09,0.7987484375001253,6.000015644530999e-09,-1.776331419479615e-06
6.000036503906e-09,0.8,6.000036503906e-09,0,6.000036503906e-09,0.7998515398469943,6.000036503906e-09,-0.0002339489935342909,6.000036503906e-09,0.8,6.000036503906e-09,0.7970796875002922,6.000036503906e-09,-1.437243999006763e-06
6.000078222656e-09,0.8,6.000078222656e-09,0,6.000078222656e-09,0.7996813667842677,6.000078222656e-09,-0.0005026355399970424,6.000078222656e-09,0.8,6.000078222656e-09,0.7937421875006262,6.000078222656e-09,-1.638627729381423e-06
6.000161660156e-09,0.8,6.000161660156e-09,0,6.000161660156e-09,0.7993431976498495,6.000161660156e-09,-0.001035104959700271,6.000161660156e-09,0.8,6.000161660156e-09,0.7870671875012941,6.000161660156e-09,-1.456016052079199e-06
6.000328535156e-09,0.8,6.000328535156e-09,0,6.000328535156e-09,0.7986872829083342,6.000328535156e-09,-0.002055453152946424,6.000328535156e-09,0.8,6.000328535156e-09,0.77371718750263,6.000328535156e-09,-1.573199892695869e-06
6.000662285155999e-09,0.8,6.000662285155999e-09,0,6.000662285155999e-09,0.7974415213714502,6.000662285155999e-09,-0.003955797078100694,6.000662285155999e-09,0.8,6.000662285155999e-09,0.7470171875053015,6.000662285155999e-09,-1.381579228449711e-06
6.001329785155999e-09,0.8,6.001329785155999e-09,0,6.001329785155999e-09,0.7951980400717379,6.001329785155999e-09,-0.007252876113918671,6.001329785155999e-09,0.8,6.001329785155999e-09,0.6936171875106449,6.001329785155999e-09,-1.433727578559733e-06
6.002664785155e-09,0.8,6.002664785155e-09,0,6.002664785155e-09,0.7915548818619718,6.002664785155e-09,-0.01219866314555143,6.002664785155e-09,0.8,6.002664785155e-09,0.5868171875213315,6.002664785155e-09,-1.163699032349346e-06
