/BL (modelFiles=gpdk045.scs:ff) X,/BL (modelFiles=gpdk045.scs:ff) Y,/BLB (modelFiles=gpdk045.scs:ff) X,/BLB (modelFiles=gpdk045.scs:ff) Y,/Q (modelFiles=gpdk045.scs:ff) X,/Q (modelFiles=gpdk045.scs:ff) Y,/QB (modelFiles=gpdk045.scs:ff) X,/QB (modelFiles=gpdk045.scs:ff) Y,/VDD (modelFiles=gpdk045.scs:ff) X,/VDD (modelFiles=gpdk045.scs:ff) Y,/WL (modelFiles=gpdk045.scs:ff) X,/WL (modelFiles=gpdk045.scs:ff) Y,/V0/PLUS (modelFiles=gpdk045.scs:ff) X,/V0/PLUS (modelFiles=gpdk045.scs:ff) Y
0,0,0,1.2,0,4.034241238525267e-07,0,1.19999842397774,0,1.2,0,1.2,0,-4.414826535060671e-10
3e-11,0,3e-11,1.2,3e-11,4.034241248444602e-07,3e-11,1.199998423977833,3e-11,1.2,3e-11,1.2,3e-11,-4.414825719788927e-10
8.999999999999999e-11,0,8.999999999999999e-11,1.2,8.999999999999999e-11,4.034241239005424e-07,8.999999999999999e-11,1.199998423977845,8.999999999999999e-11,1.2,8.999999999999999e-11,1.2,8.999999999999999e-11,-4.414825708201426e-10
2.1e-10,0,2.1e-10,1.2,2.1e-10,4.034241244489248e-07,2.1e-10,1.199998423977964,2.1e-10,1.2,2.1e-10,1.2,2.1e-10,-4.414825521845644e-10
4.499999999999999e-10,0,4.499999999999999e-10,1.2,4.499999999999999e-10,4.034241226982806e-07,4.499999999999999e-10,1.199998423977779,4.499999999999999e-10,1.2,4.499999999999999e-10,1.2,4.499999999999999e-10,-4.414825816115915e-10
9.299999999999999e-10,0,9.299999999999999e-10,1.2,9.299999999999999e-10,4.034241248118654e-07,9.299999999999999e-10,1.199998423977652,9.299999999999999e-10,1.2,9.299999999999999e-10,1.2,9.299999999999999e-10,-4.414825996353517e-10
1.53e-09,0,1.53e-09,1.2,1.53e-09,4.034241234082923e-07,1.53e-09,1.199998423978136,1.53e-09,1.2,1.53e-09,1.2,1.53e-09,-4.414825265671113e-10
2.13e-09,0,2.13e-09,1.2,2.13e-09,4.034241236627767e-07,2.13e-09,1.19999842397763,2.13e-09,1.2,2.13e-09,1.2,2.13e-09,-4.414826038174973e-10
2.73e-09,0,2.73e-09,1.2,2.73e-09,4.034241243110386e-07,2.73e-09,1.199998423977881,2.73e-09,1.2,2.73e-09,1.2,2.73e-09,-4.414825650171525e-10
3.33e-09,0,3.33e-09,1.2,3.33e-09,4.034241233912577e-07,3.33e-09,1.199998423977902,3.33e-09,1.2,3.33e-09,1.2,3.33e-09,-4.414825624551953e-10
3.929999999998999e-09,0,3.929999999998999e-09,1.2,3.929999999998999e-09,4.034241237820442e-07,3.929999999998999e-09,1.199998423977488,3.929999999998999e-09,1.2,3.929999999998999e-09,1.2,3.929999999998999e-09,-4.414826254208771e-10
3.99e-09,0,3.99e-09,1.2,3.99e-09,4.034241280183294e-07,3.99e-09,1.199998423977858,3.99e-09,1.2,3.99e-09,1.2,3.99e-09,-4.414825659570415e-10
3.990083402777e-09,0.01000833333332,3.990083402777e-09,1.18999166666668,3.990083402777e-09,0.0009174999137758665,3.990083402777e-09,1.200282695817239,3.990083402777e-09,1.2,3.990083402777e-09,1.2,3.990083402777e-09,1.807807496043572e-06
3.990250208332999e-09,0.03002499999995999,3.990250208332999e-09,1.16997500000004,3.990250208332999e-09,0.003147450196039103,3.990250208332999e-09,1.200975839643836,3.990250208332999e-09,1.2,3.990250208332999e-09,1.2,3.990250208332999e-09,2.742891676796966e-06
3.990583819444e-09,0.07005833333323998,3.990583819444e-09,1.12994166666676,3.990583819444e-09,0.009357821584143014,3.990583819444e-09,1.202817284467579,3.990583819444e-09,1.2,3.990583819444e-09,1.2,3.990583819444e-09,3.826268646993431e-06
3.991002901441e-09,0.1203481729382057,3.991002901441e-09,1.079651827061794,3.991002901441e-09,0.01947300068433894,3.991002901441e-09,1.205613116742951,3.991002901441e-09,1.2,3.991002901441e-09,1.2,3.991002901441e-09,5.049509379467406e-06
3.991841065434e-09,0.2209278521481372,3.991841065434e-09,0.9790721478518627,3.991841065434e-09,0.04300655848659311,3.991841065434e-09,1.211301585414339,3.991841065434e-09,1.2,3.991841065434e-09,1.2,3.991841065434e-09,5.976381027700561e-06
3.992864140074e-09,0.3436968089159852,3.992864140074e-09,0.8563031910840148,3.992864140074e-09,0.07218636408715251,3.992864140074e-09,1.216806556714797,3.992864140074e-09,1.2,3.992864140074e-09,1.2,3.992864140074e-09,6.239402416392749e-06
3.994179512083e-09,0.5015414500253241,3.994179512083e-09,0.6984585499746758,3.994179512083e-09,0.104653519962348,3.994179512083e-09,1.219857853166673,3.994179512083e-09,1.2,3.994179512083e-09,1.2,3.994179512083e-09,5.19713130018583e-06
3.995881635565e-09,0.7057962679074006,3.995881635565e-09,0.4942037320925994,3.995881635565e-09,0.1334090207508876,3.995881635565e-09,1.206443455641515,3.995881635565e-09,1.2,3.995881635565e-09,1.2,3.995881635565e-09,-4.74926147685491e-07
3.997662264992e-09,0.9194717990493448,3.997662264992e-09,0.2805282009506551,3.997662264992e-09,0.1497533174759126,3.997662264992e-09,1.15181985134482,3.997662264992e-09,1.2,3.997662264992e-09,1.2,3.997662264992e-09,-1.563661882829542e-05
3.998831132496e-09,1.059735899524672,3.998831132496e-09,0.1402641004753276,3.998831132496e-09,0.1573227068729512,3.998831132496e-09,1.081511972109185,3.998831132496e-09,1.2,3.998831132496e-09,1.2,3.998831132496e-09,-2.46178484635542e-05
3.999415566247999e-09,1.129867949762386,3.999415566247999e-09,0.07013205023761415,3.999415566247999e-09,0.1620104039164775,3.999415566247999e-09,1.033159051719957,3.999415566247999e-09,1.2,3.999415566247999e-09,1.2,3.999415566247999e-09,-2.904852556693002e-05
3.999999999999999e-09,1.2,3.999999999999999e-09,0,3.999999999999999e-09,0.1684299589586371,3.999999999999999e-09,0.9751734499794543,3.999999999999999e-09,1.2,3.999999999999999e-09,1.2,3.999999999999999e-09,-3.248067879571935e-05
4.000083402777e-09,1.2,4.000083402777e-09,0,4.000083402777e-09,0.1695840355169224,4.000083402777e-09,0.9663728786259905,4.000083402777e-09,1.2,4.000083402777e-09,1.2,4.000083402777e-09,-3.297484089882395e-05
4.000250208333e-09,1.2,4.000250208333e-09,0,4.000250208333e-09,0.1721014014642398,4.000250208333e-09,0.9489462802252627,4.000250208333e-09,1.2,4.000250208333e-09,1.2,4.000250208333e-09,-3.304546750251303e-05
4.000311194390999e-09,1.2,4.000311194390999e-09,0,4.000311194390999e-09,0.1731138789659435,4.000311194390999e-09,0.9426903067793637,4.000311194390999e-09,1.2,4.000311194390999e-09,1.2,4.000311194390999e-09,-3.325271518709064e-05
4.000341687421e-09,1.2,4.000341687421e-09,0,4.000341687421e-09,0.1736375099313987,4.000341687421e-09,0.9395852644572922,4.000341687421e-09,1.2,4.000341687421e-09,1.2,4.000341687421e-09,-3.317319794700465e-05
4.000402673478999e-09,1.2,4.000402673478999e-09,0,4.000402673478999e-09,0.1747190372584308,4.000402673478999e-09,0.9334189422098802,4.000402673478999e-09,1.2,4.000402673478999e-09,1.2,4.000402673478999e-09,-3.334748379309671e-05
4.000433166508e-09,1.2,4.000433166508e-09,0,4.000433166508e-09,0.1752764746622245,4.000433166508e-09,0.9303580656678685,4.000433166508e-09,1.2,4.000433166508e-09,1.2,4.000433166508e-09,-3.32932633968076e-05
4.000494152566999e-09,1.2,4.000494152566999e-09,0,4.000494152566999e-09,0.1764240203670207,4.000494152566999e-09,0.924279106479815,4.000494152566999e-09,1.2,4.000494152566999e-09,1.2,4.000494152566999e-09,-3.344212315554747e-05
4.000616124684e-09,1.2,4.000616124684e-09,0,4.000616124684e-09,0.1788445769984743,4.000616124684e-09,0.9122893950477708,4.000616124684e-09,1.2,4.000616124684e-09,1.2,4.000616124684e-09,-3.34963586834684e-05
4.000860068917999e-09,1.2,4.000860068917999e-09,0,4.000860068917999e-09,0.184155617356331,4.000860068917999e-09,0.8889431949366572,4.000860068917999e-09,1.2,4.000860068917999e-09,1.2,4.000860068917999e-09,-3.378769637120886e-05
4.001347957386e-09,1.2,4.001347957386e-09,0,4.001347957386e-09,0.196457744703151,4.001347957386e-09,0.8444801903653651,4.001347957386e-09,1.2,4.001347957386e-09,1.2,4.001347957386e-09,-3.396966886782729e-05
4.002323734322e-09,1.2,4.002323734322e-09,0,4.002323734322e-09,0.2268739078992973,4.002323734322e-09,0.7623677618828594,4.002323734322e-09,1.2,4.002323734322e-09,1.2,4.002323734322e-09,-3.398491464928882e-05
4.003824508416e-09,1.2,4.003824508416e-09,0,4.003824508416e-09,0.2857596521270732,4.003824508416e-09,0.6469416866678585,4.003824508416e-09,1.2,4.003824508416e-09,1.2,4.003824508416e-09,-3.404585417592331e-05
4.005498891521e-09,1.2,4.005498891521e-09,0,4.005498891521e-09,0.3625274707788598,4.005498891521e-09,0.5238621896068172,4.005498891521e-09,1.2,4.005498891521e-09,1.2,4.005498891521e-09,-3.614416458848462e-05
4.00737065276e-09,1.2,4.00737065276e-09,0,4.00737065276e-09,0.4542681293890478,4.00737065276e-09,0.3859652860847798,4.00737065276e-09,1.2,4.00737065276e-09,1.2,4.00737065276e-09,-3.98261744071784e-05
4.009685263511e-09,1.2,4.009685263511e-09,0,4.009685263511e-09,0.5772651901983421,4.009685263511e-09,0.2264580753077127,4.009685263511e-09,1.2,4.009685263511e-09,1.2,4.009685263511e-09,-4.097926602373929e-05
4.012120534029e-09,1.2,4.012120534029e-09,0,4.012120534029e-09,0.7281910980511817,4.012120534029e-09,0.1058470150152295,4.012120534029e-09,1.2,4.012120534029e-09,1.2,4.012120534029e-09,-3.57076761702361e-05
4.013994907836e-09,1.2,4.013994907836e-09,0,4.013994907836e-09,0.8542288435972151,4.013994907836e-09,0.05678915284065841,4.013994907836e-09,1.2,4.013994907836e-09,1.2,4.013994907836e-09,-3.010092898622599e-05
4.016423445454999e-09,1.2,4.016423445454999e-09,0,4.016423445454999e-09,0.993794595734802,4.016423445454999e-09,0.02844642959417201,4.016423445454999e-09,1.2,4.016423445454999e-09,1.2,4.016423445454999e-09,-1.97588993986026e-05
4.018203245831999e-09,1.2,4.018203245831999e-09,0,4.018203245831999e-09,1.062991422792748,4.018203245831999e-09,0.01793891561108297,4.018203245831999e-09,1.2,4.018203245831999e-09,1.2,4.018203245831999e-09,-1.341506148081838e-05
4.020224225431e-09,1.2,4.020224225431e-09,0,4.020224225431e-09,1.113876752568046,4.020224225431e-09,0.01077831591134386,4.020224225431e-09,1.2,4.020224225431e-09,1.2,4.020224225431e-09,-8.403967603161685e-06
4.023038791791e-09,1.2,4.023038791791e-09,0,4.023038791791e-09,1.155487189202722,4.023038791791e-09,0.005404599913446674,4.023038791791e-09,1.2,4.023038791791e-09,1.2,4.023038791791e-09,-4.500938603996432e-06
4.025407900103e-09,1.2,4.025407900103e-09,0,4.025407900103e-09,1.174493550336521,4.025407900103e-09,0.003094215475360939,4.025407900103e-09,1.2,4.025407900103e-09,1.2,4.025407900103e-09,-2.522205837385258e-06
4.028328577885e-09,1.2,4.028328577885e-09,0,4.028328577885e-09,1.187341540655416,4.028328577885e-09,0.001539327734516618,4.028328577885e-09,1.2,4.028328577885e-09,1.2,4.028328577885e-09,-1.338531758724397e-06
4.031697463016999e-09,1.2,4.031697463016999e-09,0,4.031697463016999e-09,1.194438977747398,4.031697463016999e-09,0.0006751702496365234,4.031697463016999e-09,1.2,4.031697463016999e-09,1.2,4.031697463016999e-09,-5.167672734957448e-07
4.035985514645e-09,1.2,4.035985514645e-09,0,4.035985514645e-09,1.198136096953513,4.035985514645e-09,0.0002287272341450372,4.035985514645e-09,1.2,4.035985514645e-09,1.2,4.035985514645e-09,-2.420332100127584e-07
4.041330836139e-09,1.2,4.041330836139e-09,0,4.041330836139e-09,1.199560011424696,4.041330836139e-09,5.223849644692697e-05,4.041330836139e-09,1.2,4.041330836139e-09,1.2,4.041330836139e-09,5.51390167170864e-09
4.048550100928e-09,1.2,4.048550100928e-09,0,4.048550100928e-09,1.199962669979651,4.048550100928e-09,5.823625931163892e-06,4.048550100928e-09,1.2,4.048550100928e-09,1.2,4.048550100928e-09,-5.486422302266196e-08
4.058826160171e-09,1.2,4.058826160171e-09,0,4.058826160171e-09,1.199999589190726,4.058826160171e-09,-1.063105913045255e-06,4.058826160171e-09,1.2,4.058826160171e-09,1.2,4.058826160171e-09,5.030247155637068e-08
4.075669385373e-09,1.2,4.075669385373e-09,0,4.075669385373e-09,1.199999690823686,4.075669385373e-09,1.644111860639096e-06,4.075669385373e-09,1.2,4.075669385373e-09,1.2,4.075669385373e-09,-5.086541641891283e-08
4.108035052118e-09,1.2,4.108035052118e-09,0,4.108035052118e-09,1.199996639289182,4.108035052118e-09,-7.975571047804507e-07,4.108035052118e-09,1.2,4.108035052118e-09,1.2,4.108035052118e-09,4.989993423739946e-08
4.172766385608e-09,1.2,4.172766385608e-09,0,4.172766385608e-09,1.200000278715786,4.172766385608e-09,1.574171242958726e-06,4.172766385608e-09,1.2,4.172766385608e-09,1.2,4.172766385608e-09,-5.076684934854303e-08
4.302229052587e-09,1.2,4.302229052587e-09,0,4.302229052587e-09,1.199996710508451,4.302229052587e-09,-7.221438436748289e-07,4.302229052587e-09,1.2,4.302229052587e-09,1.2,4.302229052587e-09,4.990312994196845e-08
4.5e-09,1.2,4.5e-09,0,4.5e-09,1.199999946434904,4.5e-09,1.481362298054806e-06,4.5e-09,1.2,4.5e-09,1.2,4.5e-09,-5.081464364358689e-08
4.598885473706e-09,1.2,4.598885473706e-09,0,4.598885473706e-09,1.199998389368905,4.598885473706e-09,4.325869579107707e-07,4.598885473706e-09,1.2,4.598885473706e-09,1.2,4.598885473706e-09,-4.466585087308118e-10
4.648328210558999e-09,1.2,4.648328210558999e-09,0,4.648328210558999e-09,1.199998446541731,4.648328210558999e-09,3.782473238969706e-07,4.648328210558999e-09,1.2,4.648328210558999e-09,1.2,4.648328210558999e-09,-4.379045042932708e-10
4.747213684265e-09,1.2,4.747213684265e-09,0,4.747213684265e-09,1.199998406035171,4.747213684265e-09,4.268757964056118e-07,4.747213684265e-09,1.2,4.747213684265e-09,1.2,4.747213684265e-09,-4.444350371588836e-10
4.944984631678e-09,1.2,4.944984631678e-09,0,4.944984631678e-09,1.199998439914984,4.944984631678e-09,3.80771691499806e-07,4.944984631678e-09,1.2,4.944984631678e-09,1.2,4.944984631678e-09,-4.388090249348805e-10
5.340526526502999e-09,1.2,5.340526526502999e-09,0,5.340526526502999e-09,1.199998409198851,5.340526526502999e-09,4.2619752382257e-07,5.340526526502999e-09,1.2,5.340526526502999e-09,1.2,5.340526526502999e-09,-4.439897636293645e-10
5.940526526503e-09,1.2,5.940526526503e-09,0,5.940526526503e-09,1.199998438170556,5.940526526503e-09,3.809051389700376e-07,5.940526526503e-09,1.2,5.940526526503e-09,1.2,5.940526526503e-09,-4.390593345672973e-10
5.989999999999999e-09,1.2,5.989999999999999e-09,0,5.989999999999999e-09,1.199998415663609,5.989999999999999e-09,4.231259432911098e-07,5.989999999999999e-09,1.2,5.989999999999999e-09,1.2,5.989999999999999e-09,-4.430298323691891e-10
5.990005212672999e-09,1.2,5.990005212672999e-09,0,5.990005212672999e-09,1.199964387827696,5.990005212672999e-09,-4.818835330222724e-05,5.990005212672999e-09,1.2,5.990005212672999e-09,1.199374479166637,5.990005212672999e-09,-1.863580233026898e-06
5.99001563802e-09,1.2,5.99001563802e-09,0,5.99001563802e-09,1.19988590992378,5.99001563802e-09,-0.0001669954032426284,5.99001563802e-09,1.2,5.99001563802e-09,1.198123437499909,5.99001563802e-09,-3.438884389425406e-06
5.990020850694e-09,1.2,5.990020850694e-09,0,5.990020850694e-09,1.199845204342576,5.990020850694e-09,-0.0002306413073834058,5.990020850694e-09,1.2,5.990020850694e-09,1.197497916666546,5.990020850694e-09,-3.05366122800623e-06
5.990031276040999e-09,1.2,5.990031276040999e-09,0,5.990031276040999e-09,1.199767948603928,5.990031276040999e-09,-0.0003491442850498938,5.990031276040999e-09,1.2,5.990031276040999e-09,1.196246874999819,5.990031276040999e-09,-2.981740789592406e-06
5.990052126736e-09,1.2,5.990052126736e-09,0,5.990052126736e-09,1.199613861041957,5.990052126736e-09,-0.0005848872608822003,5.990052126736e-09,1.2,5.990052126736e-09,1.193744791666365,5.990052126736e-09,-2.983621360462741e-06
5.990093828125e-09,1.2,5.990093828125e-09,0,5.990093828125e-09,1.19931326450098,5.990093828125e-09,-0.001041462617861094,5.990093828125e-09,1.2,5.990093828125e-09,1.188740624999458,5.990093828125e-09,-2.90916592939111e-06
5.990177230901999e-09,1.2,5.990177230901999e-09,0,5.990177230901999e-09,1.198736357938427,5.990177230901999e-09,-0.001904658602606388,5.990177230901999e-09,1.2,5.990177230901999e-09,1.178732291665642,5.990177230901999e-09,-2.841771260000084e-06
5.990344036457999e-09,1.2,5.990344036457999e-09,0,5.990344036457999e-09,1.197675361477723,5.990344036457999e-09,-0.003445266083181857,5.990344036457999e-09,1.2,5.990344036457999e-09,1.158715624998011,5.990344036457999e-09,-2.659805948664765e-06
5.990677647568999e-09,1.2,5.990677647568999e-09,0,5.990677647568999e-09,1.195863417588627,5.990677647568999e-09,-0.005921470772299355,5.990677647568999e-09,1.2,5.990677647568999e-09,1.118682291662749,5.990677647568999e-09,-2.449293977144852e-06
5.991344869791e-09,1.2,5.991344869791e-09,0,5.991344869791e-09,1.193148084437191,5.991344869791e-09,-0.009209884713475539,5.991344869791e-09,1.2,5.991344869791e-09,1.038615624992225,5.991344869791e-09,-2.175439325393639e-06
5.992679314236e-09,1.2,5.992679314236e-09,0,5.992679314236e-09,1.189805033031205,5.992679314236e-09,-0.01249166513968609,5.992679314236e-09,1.2,5.992679314236e-09,0.8784822916511777,5.992679314236e-09,-2.112650830091892e-06
5.994435423102999e-09,1.2,5.994435423102999e-09,0,5.994435423102999e-09,1.187464681101297,5.994435423102999e-09,-0.01444439697112958,5.994435423102999e-09,1.2,5.994435423102999e-09,0.6677492275386787,5.994435423102999e-09,-2.210869950356882e-06
5.996832684883999e-09,1.2,5.996832684883999e-09,0,5.996832684883999e-09,1.186200975172687,5.996832684883999e-09,-0.01468017572633528,5.996832684883999e-09,1.2,5.996832684883999e-09,0.3800778138365877,5.996832684883999e-09,-2.072465701390647e-06
5.998416342441999e-09,1.2,5.998416342441999e-09,0,5.998416342441999e-09,1.186513297327455,5.998416342441999e-09,-0.01196179091586817,5.998416342441999e-09,1.2,5.998416342441999e-09,0.1900389069182937,5.998416342441999e-09,-1.625061951107255e-06
5.999999999999999e-09,1.2,5.999999999999999e-09,0,5.999999999999999e-09,1.186685819360605,5.999999999999999e-09,-0.009438428704799336,5.999999999999999e-09,1.2,5.999999999999999e-09,0,5.999999999999999e-09,-2.05588876877217e-06
6.000001303168e-09,1.2,6.000001303168e-09,0,6.000001303168e-09,1.186690856387905,6.000001303168e-09,-0.009432275913605296,6.000001303168e-09,1.2,6.000001303168e-09,0,6.000001303168e-09,-1.423692260032512e-06
6.000003909505e-09,1.2,6.000003909505e-09,0,6.000003909505e-09,1.186704655986916,6.000003909505e-09,-0.009415578681378191,6.000003909505e-09,1.2,6.000003909505e-09,0,6.000003909505e-09,-3.687632278079129e-07
6.000009122178e-09,1.2,6.000009122178e-09,0,6.000009122178e-09,1.186736118720757,6.000009122178e-09,-0.009376413684840913,6.000009122178e-09,1.2,6.000009122178e-09,0,6.000009122178e-09,9.866238063406413e-08
6.000011728515e-09,1.2,6.000011728515e-09,0,6.000011728515e-09,1.186750353521855,6.000011728515e-09,-0.009358363060570942,6.000011728515e-09,1.2,6.000011728515e-09,0,6.000011728515e-09,-2.51414795726367e-08
6.000016941188999e-09,1.2,6.000016941188999e-09,0,6.000016941188999e-09,1.186778833636962,6.000016941188999e-09,-0.009322616626378441,6.000016941188999e-09,1.2,6.000016941188999e-09,0,6.000016941188999e-09,-1.15933532133203e-08
6.000027366535999e-09,1.2,6.000027366535999e-09,0,6.000027366535999e-09,1.186834933131526,6.000027366535999e-09,-0.009252095998757764,6.000027366535999e-09,1.2,6.000027366535999e-09,0,6.000027366535999e-09,-6.865505261822279e-08
6.00004821723e-09,1.2,6.00004821723e-09,0,6.00004821723e-09,1.186946151563856,6.00004821723e-09,-0.009112726094006816,6.00004821723e-09,1.2,6.00004821723e-09,0,6.00004821723e-09,-4.257913777548241e-08
6.000089918619e-09,1.2,6.000089918619e-09,0,6.000089918619e-09,1.187164873287534,6.000089918619e-09,-0.008839752272190521,6.000089918619e-09,1.2,6.000089918619e-09,0,6.000089918619e-09,-8.458537333553495e-08
6.000173321396999e-09,1.2,6.000173321396999e-09,0,6.000173321396999e-09,1.187588681068787,6.000173321396999e-09,-0.008316052332792439,6.000173321396999e-09,1.2,6.000173321396999e-09,0,6.000173321396999e-09,-7.823282489818887e-08
6.000340126953e-09,1.2,6.000340126953e-09,0,6.000340126953e-09,1.188384259427814,6.000340126953e-09,-0.00735203658221139,6.000340126953e-09,1.2,6.000340126953e-09,0,6.000340126953e-09,-1.4736015231105e-07
6.000673738063999e-09,1.2,6.000673738063999e-09,0,6.000673738063999e-09,1.189791095141456,6.000673738063999e-09,-0.00571674849827346,6.000673738063999e-09,1.2,6.000673738063999e-09,0,6.000673738063999e-09,-1.838599680157736e-07
6.001340960286e-09,1.2,6.001340960286e-09,0,6.001340960286e-09,1.192015980242476,6.001340960286e-09,-0.003355572995660318,6.001340960286e-09,1.2,6.001340960286e-09,0,6.001340960286e-09,-2.909741247612028e-07
