/BL (modelFiles=gpdk045.scs:tt) X,/BL (modelFiles=gpdk045.scs:tt) Y,/BLB (modelFiles=gpdk045.scs:tt) X,/BLB (modelFiles=gpdk045.scs:tt) Y,/Q (modelFiles=gpdk045.scs:tt) X,/Q (modelFiles=gpdk045.scs:tt) Y,/QB (modelFiles=gpdk045.scs:tt) X,/QB (modelFiles=gpdk045.scs:tt) Y,/VDD (modelFiles=gpdk045.scs:tt) X,/VDD (modelFiles=gpdk045.scs:tt) Y,/WL (modelFiles=gpdk045.scs:tt) X,/WL (modelFiles=gpdk045.scs:tt) Y,/V0/PLUS (modelFiles=gpdk045.scs:tt) X,/V0/PLUS (modelFiles=gpdk045.scs:tt) Y
0,0,0,1,0,2.86662488983234e-08,0,0.9999998789041044,0,1,0,1,0,-2.205943582930019e-11
3e-11,0,3e-11,1,3e-11,2.866624990118223e-08,3e-11,0.9999998789041907,3e-11,1,3e-11,1,3e-11,-2.205936799243664e-11
8.999999999999999e-11,0,8.999999999999999e-11,1,8.999999999999999e-11,2.866624898040407e-08,8.999999999999999e-11,0.9999998789042028,8.999999999999999e-11,1,8.999999999999999e-11,1,8.999999999999999e-11,-2.205936693837028e-11
2.1e-10,0,2.1e-10,1,2.1e-10,2.866624956640051e-08,2.1e-10,0.9999998789043275,2.1e-10,1,2.1e-10,1,2.1e-10,-2.205934964531042e-11
4.499999999999999e-10,0,4.499999999999999e-10,1,4.499999999999999e-10,2.866624731697163e-08,4.499999999999999e-10,0.9999998789040095,4.499999999999999e-10,1,4.499999999999999e-10,1,4.499999999999999e-10,-2.205939416569692e-11
9.299999999999999e-10,0,9.299999999999999e-10,1,9.299999999999999e-10,2.866625109733242e-08,9.299999999999999e-10,0.9999998789044373,9.299999999999999e-10,1,9.299999999999999e-10,1,9.299999999999999e-10,-2.20593338018536e-11
1.53e-09,0,1.53e-09,1,1.53e-09,2.866624611752137e-08,1.53e-09,0.9999998789039081,1.53e-09,1,1.53e-09,1,1.53e-09,-2.205940868737864e-11
2.13e-09,0,2.13e-09,1,2.13e-09,2.866625244949671e-08,2.13e-09,0.9999998789045252,2.13e-09,1,2.13e-09,1,2.13e-09,-2.205932106203628e-11
2.73e-09,0,2.73e-09,1,2.73e-09,2.866624455481029e-08,2.73e-09,0.9999998789038349,2.73e-09,1,2.73e-09,1,2.73e-09,-2.205941954208164e-11
3.33e-09,0,3.33e-09,1,3.33e-09,2.866625409524501e-08,3.33e-09,0.9999998789045248,3.33e-09,1,3.33e-09,1,3.33e-09,-2.205932013158406e-11
3.929999999998999e-09,0,3.929999999998999e-09,1,3.929999999998999e-09,2.866624289361181e-08,3.929999999998999e-09,0.9999998789038353,3.929999999998999e-09,1,3.929999999998999e-09,1,3.929999999998999e-09,-2.205942047700929e-11
3.99e-09,0,3.99e-09,1,3.99e-09,2.86662620478623e-08,3.99e-09,0.9999998789044965,3.99e-09,1,3.99e-09,1,3.99e-09,-2.205931873098275e-11
3.990083416666e-09,0.008341666666706547,3.990083416666e-09,0.9916583333332935,3.990083416666e-09,0.0007191623957502919,3.990083416666e-09,1.00021997645998,3.990083416666e-09,1,3.990083416666e-09,1,3.990083416666e-09,1.375941982648814e-06
3.99025025e-09,0.02502500000011964,3.99025025e-09,0.9749749999998804,3.99025025e-09,0.00244236010114413,3.99025025e-09,1.000748614162112,3.99025025e-09,1,3.99025025e-09,1,3.99025025e-09,2.026717872328321e-06
3.990583916666e-09,0.05839166666694583,3.990583916666e-09,0.9416083333330542,3.990583916666e-09,0.007121406648179779,3.990583916666e-09,1.002121351755493,3.990583916666e-09,1,3.990583916666e-09,1,3.990583916666e-09,2.748587407650932e-06
3.991008498796e-09,0.1008498796883729,3.991008498796e-09,0.8991501203116271,3.991008498796e-09,0.01462792665904193,3.991008498796e-09,1.004177314874745,3.991008498796e-09,1,3.991008498796e-09,1,3.991008498796e-09,3.511944588559505e-06
3.991857663057e-09,0.185766305731227,3.991857663057e-09,0.814233694268773,3.991857663057e-09,0.03126923294553683,3.991857663057e-09,1.008157798682899,3.991857663057e-09,1,3.991857663057e-09,1,3.991857663057e-09,3.887113685521691e-06
3.992904313279e-09,0.2904313279533001,3.992904313279e-09,0.7095686720466999,3.992904313279e-09,0.05088696160352035,3.992904313279e-09,1.011788233441308,3.992904313279e-09,1,3.992904313279e-09,1,3.992904313279e-09,3.857341848634309e-06
3.994321601615e-09,0.4321601615575177,3.994321601615e-09,0.5678398384424823,3.994321601615e-09,0.07180981553456783,3.994321601615e-09,1.013919672091262,3.994321601615e-09,1,3.994321601615e-09,1,3.994321601615e-09,3.02505906487167e-06
3.996224080979999e-09,0.6224080980681479,3.996224080979999e-09,0.3775919019318521,3.996224080979999e-09,0.08989547748667044,3.996224080979999e-09,1.010452348747718,3.996224080979999e-09,1,3.996224080979999e-09,1,3.996224080979999e-09,1.417527339453618e-06
3.998112040489999e-09,0.8112040490340739,3.998112040489999e-09,0.1887959509659261,3.998112040489999e-09,0.09897886387640904,3.998112040489999e-09,0.9813566675809486,3.998112040489999e-09,1,3.998112040489999e-09,1,3.998112040489999e-09,-6.906104688487081e-06
3.999056020244999e-09,0.905602024517037,3.999056020244999e-09,0.09439797548296303,3.999056020244999e-09,0.1012854399910308,3.999056020244999e-09,0.9468144428222344,3.999056020244999e-09,1,3.999056020244999e-09,1,3.999056020244999e-09,-1.338183067785472e-05
3.999528010121999e-09,0.9528010122585598,3.999528010121999e-09,0.04719898774144016,3.999528010121999e-09,0.1024210176625893,3.999528010121999e-09,0.9216120013140381,3.999528010121999e-09,1,3.999528010121999e-09,1,3.999528010121999e-09,-1.59279772444125e-05
3.999999999999999e-09,1,3.999999999999999e-09,0,3.999999999999999e-09,0.1040460701657226,3.999999999999999e-09,0.8900431064245329,3.999999999999999e-09,1,3.999999999999999e-09,1,3.999999999999999e-09,-1.894592623489802e-05
4.000083416666e-09,1,4.000083416666e-09,0,4.000083416666e-09,0.1044552570608496,4.000083416666e-09,0.8839265058371395,4.000083416666e-09,1,4.000083416666e-09,1,4.000083416666e-09,-1.886285088137502e-05
4.00025025e-09,1,4.00025025e-09,0,4.00025025e-09,0.1054319930491215,4.00025025e-09,0.8717335304126471,4.00025025e-09,1,4.00025025e-09,1,4.00025025e-09,-1.871426769644494e-05
4.000304754351e-09,1,4.000304754351e-09,0,4.000304754351e-09,0.1058130790934859,4.000304754351e-09,0.8677964533757839,4.000304754351e-09,1,4.000304754351e-09,1,4.000304754351e-09,-1.887864519955808e-05
4.000413763053e-09,1,4.000413763053e-09,0,4.000413763053e-09,0.1066603497616848,4.000413763053e-09,0.8599897480533104,4.000413763053e-09,1,4.000413763053e-09,1,4.000413763053e-09,-1.875771806251319e-05
4.000468267405e-09,1,4.000468267405e-09,0,4.000468267405e-09,0.1071257023174844,4.000468267405e-09,0.8561212034138634,4.000468267405e-09,1,4.000468267405e-09,1,4.000468267405e-09,-1.890817854221412e-05
4.000577276106999e-09,1,4.000577276106999e-09,0,4.000577276106999e-09,0.1081353359436905,4.000577276106999e-09,0.8484518860881328,4.000577276106999e-09,1,4.000577276106999e-09,1,4.000577276106999e-09,-1.881034786004811e-05
4.000795293513e-09,1,4.000795293513e-09,0,4.000795293513e-09,0.1104518479237539,4.000795293513e-09,0.8333780481334213,4.000795293513e-09,1,4.000795293513e-09,1,4.000795293513e-09,-1.898491452759312e-05
4.001231328323e-09,1,4.001231328323e-09,0,4.001231328323e-09,0.1161417255445372,4.001231328323e-09,0.8041926728876215,4.001231328323e-09,1,4.001231328323e-09,1,4.001231328323e-09,-1.890692859952357e-05
4.002103397943999e-09,1,4.002103397943999e-09,0,4.002103397943999e-09,0.1309120408153813,4.002103397943999e-09,0.7487108954136126,4.002103397943999e-09,1,4.002103397943999e-09,1,4.002103397943999e-09,-1.871435546682422e-05
4.003737458414e-09,1,4.003737458414e-09,0,4.003737458414e-09,0.1654073188428123,4.003737458414e-09,0.6496129681454101,4.003737458414e-09,1,4.003737458414e-09,1,4.003737458414e-09,-1.730996132646692e-05
4.005481994705999e-09,1,4.005481994705999e-09,0,4.005481994705999e-09,0.2025098290362015,4.005481994705999e-09,0.5448231939443602,4.005481994705999e-09,1,4.005481994705999e-09,1,4.005481994705999e-09,-1.680369463196163e-05
4.007336850512e-09,1,4.007336850512e-09,0,4.007336850512e-09,0.236047209116444,4.007336850512e-09,0.433863927043063,4.007336850512e-09,1,4.007336850512e-09,1,4.007336850512e-09,-1.758232994691452e-05
4.009727236361999e-09,1,4.009727236361999e-09,0,4.009727236361999e-09,0.2811036624754256,4.009727236361999e-09,0.3013751737022497,4.009727236361999e-09,1,4.009727236361999e-09,1,4.009727236361999e-09,-2.052293200213757e-05
4.012117661310999e-09,1,4.012117661310999e-09,0,4.012117661310999e-09,0.3447225747377711,4.012117661310999e-09,0.1912236872453346,4.012117661310999e-09,1,4.012117661310999e-09,1,4.012117661310999e-09,-2.183634237601162e-05
4.014354244085999e-09,1,4.014354244085999e-09,0,4.014354244085999e-09,0.428127842253996,4.014354244085999e-09,0.1172791137835755,4.014354244085999e-09,1,4.014354244085999e-09,1,4.014354244085999e-09,-2.125401833043064e-05
4.017062841915999e-09,1,4.017062841915999e-09,0,4.017062841915999e-09,0.5559143484290703,4.017062841915999e-09,0.06532238278259773,4.017062841915999e-09,1,4.017062841915999e-09,1,4.017062841915999e-09,-2.002109670107639e-05
4.019117180382999e-09,1,4.019117180382999e-09,0,4.019117180382999e-09,0.6595917060762024,4.019117180382999e-09,0.04405531973407708,4.019117180382999e-09,1,4.019117180382999e-09,1,4.019117180382999e-09,-1.92293906795144e-05
4.021468548379e-09,1,4.021468548379e-09,0,4.021468548379e-09,0.7669698220828443,4.021468548379e-09,0.02924560199899154,4.021468548379e-09,1,4.021468548379e-09,1,4.021468548379e-09,-1.611799894160666e-05
4.023603178577999e-09,1,4.023603178577999e-09,0,4.023603178577999e-09,0.8451193463875073,4.023603178577999e-09,0.01970306826981437,4.023603178577999e-09,1,4.023603178577999e-09,1,4.023603178577999e-09,-1.276417219546115e-05
4.026181281737999e-09,1,4.026181281737999e-09,0,4.026181281737999e-09,0.9093004046438694,4.026181281737999e-09,0.01151277560149486,4.026181281737999e-09,1,4.026181281737999e-09,1,4.026181281737999e-09,-7.526629547726945e-06
4.029505025943999e-09,1,4.029505025943999e-09,0,4.029505025943999e-09,0.9554272084858642,4.029505025943999e-09,0.005448153409387578,4.029505025943999e-09,1,4.029505025943999e-09,1,4.029505025943999e-09,-4.195772741827809e-06
4.032663942294e-09,1,4.032663942294e-09,0,4.032663942294e-09,0.9775464241335139,4.032663942294e-09,0.002704721444701943,4.032663942294e-09,1,4.032663942294e-09,1,4.032663942294e-09,-1.803460140052568e-06
4.035677621306e-09,1,4.035677621306e-09,0,4.035677621306e-09,0.9884048216954852,4.035677621306e-09,0.00139674693541539,4.035677621306e-09,1,4.035677621306e-09,1,4.035677621306e-09,-1.298122780675642e-06
4.039243779856e-09,1,4.039243779856e-09,0,4.039243779856e-09,0.9947871945339044,4.039243779856e-09,0.0006258683904818774,4.039243779856e-09,1,4.039243779856e-09,1,4.039243779856e-09,-2.486600419297036e-07
4.043660207985e-09,1,4.043660207985e-09,0,4.043660207985e-09,0.9981315588694576,4.043660207985e-09,0.0002262277931366927,4.043660207985e-09,1,4.043660207985e-09,1,4.043660207985e-09,-4.059422010103782e-07
4.049337902475999e-09,1,4.049337902475999e-09,0,4.049337902475999e-09,0.9995446060541734,4.049337902475999e-09,5.352263333550163e-05,4.049337902475999e-09,1,4.049337902475999e-09,1,4.049337902475999e-09,1.89851035152199e-07
4.056830308037999e-09,1,4.056830308037999e-09,0,4.056830308037999e-09,0.9999506296706817,4.056830308037999e-09,7.265299993336978e-06,4.056830308037999e-09,1,4.056830308037999e-09,1,4.056830308037999e-09,-2.364542537982185e-07
4.067464401073e-09,1,4.067464401073e-09,0,4.067464401073e-09,1.000003130963609,4.067464401073e-09,-1.620305769309558e-06,4.067464401073e-09,1,4.067464401073e-09,1,4.067464401073e-09,2.318664153086479e-07
4.084320076374999e-09,1,4.084320076374999e-09,0,4.084320076374999e-09,0.9999991400970242,4.084320076374999e-09,1.317830801200494e-06,4.084320076374999e-09,1,4.084320076374999e-09,1,4.084320076374999e-09,-2.315419546054125e-07
4.116564084809e-09,1,4.116564084809e-09,0,4.116564084809e-09,1.000000162966884,4.116564084809e-09,-1.18104600731416e-06,4.116564084809e-09,1,4.116564084809e-09,1,4.116564084809e-09,2.313861585042666e-07
4.181052101677e-09,1,4.181052101677e-09,0,4.181052101677e-09,0.9999997406093826,4.181052101677e-09,1.1926652807871e-06,4.181052101677e-09,1,4.181052101677e-09,1,4.181052101677e-09,-2.313829315579319e-07
4.310028135413999e-09,1,4.310028135413999e-09,0,4.310028135413999e-09,0.9999999596038613,4.310028135413999e-09,-1.086344264319865e-06,4.310028135413999e-09,1,4.310028135413999e-09,1,4.310028135413999e-09,2.31316702511739e-07
4.5e-09,1,4.5e-09,0,4.5e-09,0.9999998324108373,4.5e-09,1.094495303539621e-06,4.5e-09,1,4.5e-09,1,4.5e-09,-2.313464399642155e-07
4.594985932292e-09,1,4.594985932292e-09,0,4.594985932292e-09,0.9999998629713964,4.594985932292e-09,3.375430921154971e-08,4.594985932292e-09,1,4.594985932292e-09,1,4.594985932292e-09,-2.87865070448287e-11
4.642478898438999e-09,1,4.642478898438999e-09,0,4.642478898438999e-09,0.9999998893336663,4.642478898438999e-09,2.4581803993061e-08,4.642478898438999e-09,1,4.642478898438999e-09,1,4.642478898438999e-09,-1.588703054862096e-11
4.737464830732e-09,1,4.737464830732e-09,0,4.737464830732e-09,0.9999998704833811,4.737464830732e-09,3.2347969550927e-08,4.737464830732e-09,1,4.737464830732e-09,1,4.737464830732e-09,-2.802584365039923e-11
4.927436695317999e-09,1,4.927436695317999e-09,0,4.927436695317999e-09,0.9999998864684976,4.927436695317999e-09,2.516348846286258e-08,4.927436695317999e-09,1,4.927436695317999e-09,1,4.927436695317999e-09,-1.618202853858957e-11
5.307380424489999e-09,1,5.307380424489999e-09,0,5.307380424489999e-09,0.9999998714933264,5.307380424489999e-09,3.212704161083503e-08,5.307380424489999e-09,1,5.307380424489999e-09,1,5.307380424489999e-09,-2.789379088597661e-11
5.90738042449e-09,1,5.90738042449e-09,0,5.90738042449e-09,0.9999998860664702,5.90738042449e-09,2.525924860343554e-08,5.90738042449e-09,1,5.90738042449e-09,1,5.90738042449e-09,-1.625098161840259e-11
5.989999999999999e-09,1,5.989999999999999e-09,0,5.989999999999999e-09,0.9999998733346677,5.989999999999999e-09,3.171466878479859e-08,5.989999999999999e-09,1,5.989999999999999e-09,1,5.989999999999999e-09,-2.769922116461676e-11
5.990005213541e-09,1,5.990005213541e-09,0,5.990005213541e-09,0.9999726194823838,5.990005213541e-09,-4.095129931528175e-05,5.990005213541e-09,1,5.990005213541e-09,0.9994786458332895,5.990005213541e-09,-1.499944968752122e-06
5.990015640624999e-09,1,5.990015640624999e-09,0,5.990015640624999e-09,0.9999101025447132,5.990015640624999e-09,-0.0001391649061316412,5.990015640624999e-09,1,5.990015640624999e-09,0.9984359374998686,5.990015640624999e-09,-2.668502256717678e-06
5.990020854165999e-09,1,5.990020854165999e-09,0,5.990020854165999e-09,0.9998777333091757,5.990020854165999e-09,-0.0001911291271126569,5.990020854165999e-09,1,5.990020854165999e-09,0.9979145833331581,5.990020854165999e-09,-2.332501269664347e-06
5.99003128125e-09,1,5.99003128125e-09,0,5.99003128125e-09,0.9998161788053881,5.99003128125e-09,-0.0002882141659924565,5.99003128125e-09,1,5.99003128125e-09,0.9968718749997372,5.99003128125e-09,-2.298455330415293e-06
5.990052135416e-09,1,5.990052135416e-09,0,5.990052135416e-09,0.9996932897647918,5.990052135416e-09,-0.000481894273619815,5.990052135416e-09,1,5.990052135416e-09,0.9947864583328953,5.990052135416e-09,-2.294756490540184e-06
5.99009384375e-09,1,5.99009384375e-09,0,5.99009384375e-09,0.9994531321464473,5.99009384375e-09,-0.0008578798784057698,5.99009384375e-09,1,5.99009384375e-09,0.9906156249992114,5.99009384375e-09,-2.245123833805548e-06
5.990177260415999e-09,1,5.990177260415999e-09,0,5.990177260415999e-09,0.9989908197871472,5.990177260415999e-09,-0.001572582667333658,5.990177260415999e-09,1,5.990177260415999e-09,0.9822739583318438,5.990177260415999e-09,-2.192792652353609e-06
5.990344093749999e-09,1,5.990344093749999e-09,0,5.990344093749999e-09,0.998135391360869,5.990344093749999e-09,-0.00286205606808373,5.990344093749999e-09,1,5.990344093749999e-09,0.9655906249971087,5.990344093749999e-09,-2.064455075319639e-06
5.990677760415999e-09,1,5.990677760415999e-09,0,5.990677760415999e-09,0.9966572897348974,5.990677760415999e-09,-0.004983308632262454,5.990677760415999e-09,1,5.990677760415999e-09,0.9322239583276383,5.990677760415999e-09,-1.908234738257695e-06
5.991345093749999e-09,1,5.991345093749999e-09,0,5.991345093749999e-09,0.9943926507521681,5.991345093749999e-09,-0.007952211649413577,5.991345093749999e-09,1,5.991345093749999e-09,0.8654906249886974,5.991345093749999e-09,-1.712599705440179e-06
5.992679760416e-09,1,5.992679760416e-09,0,5.992679760416e-09,0.9915026892348894,5.992679760416e-09,-0.01128085898178034,5.992679760416e-09,1,5.992679760416e-09,0.7320239583108159,5.992679760416e-09,-1.658610507728923e-06
5.994505886980999e-09,1,5.994505886980999e-09,0,5.994505886980999e-09,0.989521592048762,5.994505886980999e-09,-0.01301195018423654,5.994505886980999e-09,1,5.994505886980999e-09,0.5494113018495115,5.994505886980999e-09,-1.580777953153578e-06
5.997178270901999e-09,1,5.997178270901999e-09,0,5.997178270901999e-09,0.989179036362495,5.997178270901999e-09,-0.01005119195460398,5.997178270901999e-09,1,5.997178270901999e-09,0.2821729097835144,5.997178270901999e-09,-1.117547659748911e-06
5.998589135450999e-09,1,5.998589135450999e-09,0,5.998589135450999e-09,0.9891801987957666,5.998589135450999e-09,-0.008149581445747183,5.998589135450999e-09,1,5.998589135450999e-09,0.1410864548917986,5.998589135450999e-09,-1.508175468023225e-06
5.999999999999999e-09,1,5.999999999999999e-09,0,5.999999999999999e-09,0.9889221407212383,5.999999999999999e-09,-0.007187726725497206,5.999999999999999e-09,1,5.999999999999999e-09,8.271161533457416e-14,5.999999999999999e-09,-1.369474263844959e-06
6.000001303385e-09,1,6.000001303385e-09,0,6.000001303385e-09,0.9889262012283598,6.000001303385e-09,-0.007183020715781689,6.000001303385e-09,1,6.000001303385e-09,0,6.000001303385e-09,-9.463828561501976e-07
6.000003910155999e-09,1,6.000003910155999e-09,0,6.000003910155999e-09,0.988936784361781,6.000003910155999e-09,-0.007171002835081798,6.000003910155999e-09,1,6.000003910155999e-09,0,6.000003910155999e-09,-2.672143439758568e-07
6.000009123696999e-09,1,6.000009123696999e-09,0,6.000009123696999e-09,0.988959902573221,6.000009123696999e-09,-0.007143784992615651,6.000009123696999e-09,1,6.000009123696999e-09,0,6.000009123696999e-09,-3.275125619905617e-08
6.000011730468e-09,1,6.000011730468e-09,0,6.000011730468e-09,0.9889703535365425,6.000011730468e-09,-0.00713110901162206,6.000011730468e-09,1,6.000011730468e-09,0,6.000011730468e-09,-1.139323353058937e-07
6.000016944009999e-09,1,6.000016944009999e-09,0,6.000016944009999e-09,0.9889915214407795,6.000016944009999e-09,-0.007105818045908847,6.000016944009999e-09,1,6.000016944009999e-09,0,6.000016944009999e-09,-9.920830339437084e-08
6.000027371092999e-09,1,6.000027371092999e-09,0,6.000027371092999e-09,0.9890332968571505,6.000027371092999e-09,-0.007055811451000977,6.000027371092999e-09,1,6.000027371092999e-09,0,6.000027371092999e-09,-1.373646437240278e-07
6.000048225259999e-09,1,6.000048225259999e-09,0,6.000048225259999e-09,0.9891162816516303,6.000048225259999e-09,-0.00695682564989281,6.000048225259999e-09,1,6.000048225259999e-09,0,6.000048225259999e-09,-1.148631561017155e-07
6.000089933593e-09,1,6.000089933593e-09,0,6.000089933593e-09,0.9892797116705602,6.000089933593e-09,-0.006762660882924374,6.000089933593e-09,1,6.000089933593e-09,0,6.000089933593e-09,-1.458619070131385e-07
6.000173350259999e-09,1,6.000173350259999e-09,0,6.000173350259999e-09,0.9895973838849443,6.000173350259999e-09,-0.006388953576700778,6.000173350259999e-09,1,6.000173350259999e-09,0,6.000173350259999e-09,-1.34982975514199e-07
6.000340183592999e-09,1,6.000340183592999e-09,0,6.000340183592999e-09,0.9901973147099123,6.000340183592999e-09,-0.005696714050375335,6.000340183592999e-09,1,6.000340183592999e-09,0,6.000340183592999e-09,-1.809301837430685e-07
6.000673850259999e-09,1,6.000673850259999e-09,0,6.000673850259999e-09,0.9912706866278972,6.000673850259999e-09,-0.004507765560558612,6.000673850259999e-09,1,6.000673850259999e-09,0,6.000673850259999e-09,-1.940354019334392e-07
6.001341183593e-09,1,6.001341183593e-09,0,6.001341183593e-09,0.9930057942423217,6.001341183593e-09,-0.002748836628148654,6.001341183593e-09,1,6.001341183593e-09,0,6.001341183593e-09,-2.602385454973171e-07
