/BL (modelFiles=gpdk045.scs:ff) X,/BL (modelFiles=gpdk045.scs:ff) Y,/BLB (modelFiles=gpdk045.scs:ff) X,/BLB (modelFiles=gpdk045.scs:ff) Y,/Q (modelFiles=gpdk045.scs:ff) X,/Q (modelFiles=gpdk045.scs:ff) Y,/QB (modelFiles=gpdk045.scs:ff) X,/QB (modelFiles=gpdk045.scs:ff) Y,/VDD (modelFiles=gpdk045.scs:ff) X,/VDD (modelFiles=gpdk045.scs:ff) Y,/WL (modelFiles=gpdk045.scs:ff) X,/WL (modelFiles=gpdk045.scs:ff) Y,/V0/PLUS (modelFiles=gpdk045.scs:ff) X,/V0/PLUS (modelFiles=gpdk045.scs:ff) Y
0,0,0,1.2,0,6.656547001017557e-07,0,1.199998414279713,0,1.2,0,0,0,-4.429651876729257e-10
3.2e-11,0,3.2e-11,1.2,3.2e-11,6.656547017425486e-07,3.2e-11,1.199998414279807,3.2e-11,1.2,3.2e-11,0,3.2e-11,-4.429651060675483e-10
9.599999999999999e-11,0,9.599999999999999e-11,1.2,9.599999999999999e-11,6.656547002374612e-07,9.599999999999999e-11,1.199998414279818,9.599999999999999e-11,1.2,9.599999999999999e-11,0,9.599999999999999e-11,-4.429651049804899e-10
2.24e-10,0,2.24e-10,1.2,2.24e-10,6.65654701714607e-07,2.24e-10,1.199998414280018,2.24e-10,1.2,2.24e-10,0,2.24e-10,-4.429650736675316e-10
4.8e-10,0,4.8e-10,1.2,4.8e-10,6.656546962780034e-07,4.8e-10,1.199998414279522,4.8e-10,1.2,4.8e-10,0,4.8e-10,-4.429651518936187e-10
9.919999999999999e-10,0,9.919999999999999e-10,1.2,9.919999999999999e-10,6.656547055671798e-07,9.919999999999999e-10,1.199998414280246,9.919999999999999e-10,1.2,9.919999999999999e-10,0,9.919999999999999e-10,-4.429650372268403e-10
1.632e-09,0,1.632e-09,1.2,1.632e-09,6.656546928328615e-07,1.632e-09,1.199998414279231,1.632e-09,1.2,1.632e-09,0,1.632e-09,-4.429651976811237e-10
1.99e-09,0,1.99e-09,1.2,1.99e-09,6.656547117679691e-07,1.99e-09,1.199998414280632,1.99e-09,1.2,1.99e-09,0,1.99e-09,-4.42964975778992e-10
1.990083402777e-09,0.01000833333331958,1.990083402777e-09,1.18999166666668,1.990083402777e-09,2.396017545686448e-06,1.990083402777e-09,1.199997692984213,1.990083402777e-09,1.2,1.990083402777e-09,0,1.990083402777e-09,-2.386544513466358e-10
1.990250208333e-09,0.03002499999995875,1.990250208333e-09,1.169975000000041,1.990250208333e-09,3.004512823584756e-06,1.990250208333e-09,1.199997907824119,1.990250208333e-09,1.2,1.990250208333e-09,0,1.990250208333e-09,4.730834110122389e-10
1.990583819444e-09,0.07005833333323708,1.990583819444e-09,1.129941666666763,1.990583819444e-09,3.45782292273234e-06,1.990583819444e-09,1.199998046082255,1.990583819444e-09,1.2,1.990583819444e-09,0,1.990583819444e-09,-9.484798435925223e-10
1.991142864078e-09,0.1371436894340203,1.991142864078e-09,1.06285631056598,1.991142864078e-09,3.913099039096441e-06,1.991142864078e-09,1.199998226208839,1.991142864078e-09,1.2,1.991142864078e-09,0,1.991142864078e-09,2.767566762734209e-10
1.992260953346e-09,0.2713144016355867,1.992260953346e-09,0.9286855983644132,1.992260953346e-09,4.133743789524686e-06,1.992260953346e-09,1.199998318003819,1.992260953346e-09,1.2,1.992260953346e-09,0,1.992260953346e-09,-1.110823964331958e-09
1.994497131883e-09,0.5396558260387195,1.994497131883e-09,0.6603441739612804,1.994497131883e-09,3.387755540390187e-06,1.994497131883e-09,1.199998182112492,1.994497131883e-09,1.2,1.994497131883e-09,0,1.994497131883e-09,6.680101364352625e-11
1.997248565941e-09,0.8698279130193349,1.997248565941e-09,0.330172086980665,1.997248565941e-09,2.233601946100584e-06,1.997248565941e-09,1.199998022601101,1.997248565941e-09,1.2,1.997248565941e-09,0,1.997248565941e-09,-1.161246913818259e-09
1.999999999999e-09,1.19999999999995,1.999999999999e-09,4.973799150320701e-14,1.999999999999e-09,1.704090568033885e-06,1.999999999999e-09,1.199997734985663,1.999999999999e-09,1.2,1.999999999999e-09,0,1.999999999999e-09,1.585251913299949e-11
2.000083402777e-09,1.2,2.000083402777e-09,0,2.000083402777e-09,7.803721744717108e-07,2.000083402777e-09,1.199998728496525,2.000083402777e-09,1.2,2.000083402777e-09,0,2.000083402777e-09,1.104045233302547e-09
2.000250208333e-09,1.2,2.000250208333e-09,0,2.000250208333e-09,7.986909804386305e-07,2.000250208333e-09,1.199998684445916,2.000250208333e-09,1.2,2.000250208333e-09,0,2.000250208333e-09,-1.925333524923456e-09
2.000583819444e-09,1.2,2.000583819444e-09,0,2.000583819444e-09,8.439205445164767e-07,2.000583819444e-09,1.199998552679543,2.000583819444e-09,1.2,2.000583819444e-09,0,2.000583819444e-09,8.866034221085708e-10
2.001145330396e-09,1.2,2.001145330396e-09,0,2.001145330396e-09,9.095238162686799e-07,2.001145330396e-09,1.199998389763252,2.001145330396e-09,1.2,2.001145330396e-09,0,2.001145330396e-09,-1.826940538363684e-09
2.002268352299e-09,1.2,2.002268352299e-09,0,2.002268352299e-09,1.000924194344762e-06,2.002268352299e-09,1.199998064380047,2.002268352299e-09,1.2,2.002268352299e-09,0,2.002268352299e-09,7.507447765725762e-10
2.004514396106e-09,1.2,2.004514396106e-09,0,2.004514396106e-09,1.138990289036183e-06,2.004514396106e-09,1.199997658393395,2.004514396106e-09,1.2,2.004514396106e-09,0,2.004514396106e-09,-1.866738544013774e-09
2.00900648372e-09,1.2,2.00900648372e-09,0,2.00900648372e-09,1.254314564447588e-06,2.00900648372e-09,1.199997207601783,2.00900648372e-09,1.2,2.00900648372e-09,0,2.00900648372e-09,6.359296293769612e-10
2.017990658948e-09,1.2,2.017990658948e-09,0,2.017990658948e-09,1.310676879174124e-06,2.017990658948e-09,1.199997013229642,2.017990658948e-09,1.2,2.017990658948e-09,0,2.017990658948e-09,-1.926953960210978e-09
2.035959009403e-09,1.2,2.035959009403e-09,0,2.035959009403e-09,1.309272492223337e-06,2.035959009403e-09,1.199996998204112,2.035959009403e-09,1.2,2.035959009403e-09,0,2.035959009403e-09,6.083396730478812e-10
2.071895710313e-09,1.2,2.071895710313e-09,0,2.071895710313e-09,1.310089672413809e-06,2.071895710313e-09,1.199997012339587,2.071895710313e-09,1.2,2.071895710313e-09,0,2.071895710313e-09,-1.924358509039185e-09
2.143769112135e-09,1.2,2.143769112135e-09,0,2.143769112135e-09,1.30993846156535e-06,2.143769112135e-09,1.199996996856678,2.143769112135e-09,1.2,2.143769112135e-09,0,2.143769112135e-09,6.07045280145846e-10
2.287515915777e-09,1.2,2.287515915777e-09,0,2.287515915777e-09,1.309856438505856e-06,2.287515915777e-09,1.199997012815887,2.287515915777e-09,1.2,2.287515915777e-09,0,2.287515915777e-09,-1.92373385976398e-09
2.575009523062e-09,1.2,2.575009523062e-09,0,2.575009523062e-09,1.310067116577998e-06,2.575009523062e-09,1.199996996668443,2.575009523062e-09,1.2,2.575009523062e-09,0,2.575009523062e-09,6.067392470042113e-10
2.99e-09,1.2,2.99e-09,0,2.99e-09,1.309789784456475e-06,2.99e-09,1.199997012912219,2.99e-09,1.2,2.99e-09,0,2.99e-09,-1.923562398042615e-09
2.990005212673e-09,1.2,2.990005212673e-09,0,2.990005212673e-09,2.757525330819326e-05,2.990005212673e-09,1.200024901992346,2.990005212673e-09,1.2,2.990005212673e-09,0.0006255208333138624,2.990005212673e-09,1.151785963804439e-06
2.99001563802e-09,1.2,2.99001563802e-09,0,2.99001563802e-09,8.465826294439181e-05,2.99001563802e-09,1.200086427835151,2.99001563802e-09,1.2,2.99001563802e-09,0.001876562499941587,2.99001563802e-09,1.80486797741643e-06
2.990036488715e-09,1.2,2.990036488715e-09,0,2.990036488715e-09,0.0001909928418830195,2.990036488715e-09,1.200204407196331,2.990036488715e-09,1.2,2.990036488715e-09,0.004378645833197037,2.990036488715e-09,1.393667664175938e-06
2.990078190104e-09,1.2,2.990078190104e-09,0,2.990078190104e-09,0.0003975215043110508,2.990078190104e-09,1.200435020946261,2.990078190104e-09,1.2,2.990078190104e-09,0.009382812499707937,2.990078190104e-09,1.696468334114374e-06
2.990161592881e-09,1.2,2.990161592881e-09,0,2.990161592881e-09,0.0007986770238982241,2.990161592881e-09,1.200886378126571,2.990161592881e-09,1.2,2.990161592881e-09,0.01939114583272973,2.990161592881e-09,1.450905678717707e-06
2.990328398437e-09,1.2,2.990328398437e-09,0,2.990328398437e-09,0.001542073161325918,2.990328398437e-09,1.201739268372092,2.990328398437e-09,1.2,2.990328398437e-09,0.03940781249877334,2.990328398437e-09,1.703307058586198e-06
2.990662009548e-09,1.2,2.990662009548e-09,0,2.990662009548e-09,0.002837762691069254,2.990662009548e-09,1.203278052176352,2.990662009548e-09,1.2,2.990662009548e-09,0.07944114583086052,2.990662009548e-09,1.518954085016939e-06
2.99132923177e-09,1.2,2.99132923177e-09,0,2.99132923177e-09,0.004853396961901538,2.99132923177e-09,1.205802502548566,2.99132923177e-09,1.2,2.99132923177e-09,0.1595078124950349,2.99132923177e-09,1.84009828829234e-06
2.992663676215e-09,1.2,2.992663676215e-09,0,2.992663676215e-09,0.008054701827369172,2.992663676215e-09,1.20925668722207,2.992663676215e-09,1.2,2.992663676215e-09,0.3196411458233837,2.992663676215e-09,1.872823665437668e-06
2.994960508941e-09,1.2,2.994960508941e-09,0,2.994960508941e-09,0.0197388438327973,2.994960508941e-09,1.201891899583849,2.994960508941e-09,1.2,2.994960508941e-09,0.5952610729452894,2.994960508941e-09,-1.743904975281376e-07
2.997230047526e-09,1.2,2.997230047526e-09,0,2.997230047526e-09,0.05143513877101753,2.997230047526e-09,1.150036391540879,2.997230047526e-09,1.2,2.997230047526e-09,0.8676057031245736,2.997230047526e-09,-1.339647360232983e-05
2.998615023763e-09,1.2,2.998615023763e-09,0,2.998615023763e-09,0.08562948167499926,2.998615023763e-09,1.08114805648636,2.998615023763e-09,1.2,2.998615023763e-09,1.033802851562287,2.998615023763e-09,-2.176359973793501e-05
2.999307511881e-09,1.2,2.999307511881e-09,0,2.999307511881e-09,0.1080768339977878,2.999307511881e-09,1.033368663724427,2.999307511881e-09,1.2,2.999307511881e-09,1.116901425781143,2.999307511881e-09,-2.570266247049545e-05
3e-09,1.2,3e-09,0,3e-09,0.1358294242435819,3e-09,0.9755975970164196,3e-09,1.2,3e-09,1.2,3e-09,-2.757420669454988e-05
3.000005212673e-09,1.2,3.000005212673e-09,0,3.000005212673e-09,0.1360043258137894,3.000005212673e-09,0.9750926108484227,3.000005212673e-09,1.2,3.000005212673e-09,1.2,3.000005212673e-09,-2.975338171228074e-05
3.00001563802e-09,1.2,3.00001563802e-09,0,3.00001563802e-09,0.1363200667320047,3.00001563802e-09,0.974062370593781,3.00001563802e-09,1.2,3.00001563802e-09,1.2,3.00001563802e-09,-3.15198175441921e-05
3.000020850694e-09,1.2,3.000020850694e-09,0,3.000020850694e-09,0.1364668327176166,3.000020850694e-09,0.9735411732287905,3.000020850694e-09,1.2,3.000020850694e-09,1.2,3.000020850694e-09,-3.119237637845313e-05
3.000023457031e-09,1.2,3.000023457031e-09,0,3.000023457031e-09,0.1365426629447002,3.000023457031e-09,0.9732822621986017,3.000023457031e-09,1.2,3.000023457031e-09,1.2,3.000023457031e-09,-3.117022210152543e-05
3.000028669704e-09,1.2,3.000028669704e-09,0,3.000028669704e-09,0.1366934200592468,3.000028669704e-09,0.9727641965565751,3.000028669704e-09,1.2,3.000028669704e-09,1.2,3.000028669704e-09,-3.120017531821462e-05
3.000039095052e-09,1.2,3.000039095052e-09,0,3.000039095052e-09,0.1369954275119629,3.000039095052e-09,0.9717292131748425,3.000039095052e-09,1.2,3.000039095052e-09,1.2,3.000039095052e-09,-3.119964356171874e-05
3.000059945746e-09,1.2,3.000059945746e-09,0,3.000059945746e-09,0.1376007504625497,3.000059945746e-09,0.969662863299369,3.000059945746e-09,1.2,3.000059945746e-09,1.2,3.000059945746e-09,-3.126871392908812e-05
3.000101647135e-09,1.2,3.000101647135e-09,0,3.000101647135e-09,0.1388166420848493,3.000101647135e-09,0.965544932841366,3.000101647135e-09,1.2,3.000101647135e-09,1.2,3.000101647135e-09,-3.13491151440369e-05
3.000185049913e-09,1.2,3.000185049913e-09,0,3.000185049913e-09,0.1412695648820018,3.000185049913e-09,0.9573686126471025,3.000185049913e-09,1.2,3.000185049913e-09,1.2,3.000185049913e-09,-3.156042911485047e-05
3.000351855468e-09,1.2,3.000351855468e-09,0,3.000351855468e-09,0.1462610872733124,3.000351855468e-09,0.9412565090873696,3.000351855468e-09,1.2,3.000351855468e-09,1.2,3.000351855468e-09,-3.191748130381967e-05
3.000685466579e-09,1.2,3.000685466579e-09,0,3.000685466579e-09,0.1565854811092785,3.000685466579e-09,0.9099793388681744,3.000685466579e-09,1.2,3.000685466579e-09,1.2,3.000685466579e-09,-3.259287091043686e-05
3.001352688802e-09,1.2,3.001352688802e-09,0,3.001352688802e-09,0.1785403745570269,3.001352688802e-09,0.8508364448700133,3.001352688802e-09,1.2,3.001352688802e-09,1.2,3.001352688802e-09,-3.344696151652033e-05
3.002687133246e-09,1.2,3.002687133246e-09,0,3.002687133246e-09,0.2279074879160883,3.002687133246e-09,0.7426355075802604,3.002687133246e-09,1.2,3.002687133246e-09,1.2,3.002687133246e-09,-3.378389863528776e-05
3.004406881844e-09,1.2,3.004406881844e-09,0,3.004406881844e-09,0.3019329571453415,3.004406881844e-09,0.6144551332636304,3.004406881844e-09,1.2,3.004406881844e-09,1.2,3.004406881844e-09,-3.44231595742207e-05
3.006283400378e-09,1.2,3.006283400378e-09,0,3.006283400378e-09,0.3916047288662043,3.006283400378e-09,0.4776524789203034,3.006283400378e-09,1.2,3.006283400378e-09,1.2,3.006283400378e-09,-3.733620456057158e-05
3.008320469183e-09,1.2,3.008320469183e-09,0,3.008320469183e-09,0.4940269019443234,3.008320469183e-09,0.3289390097151669,3.008320469183e-09,1.2,3.008320469183e-09,1.2,3.008320469183e-09,-4.097537818495202e-05
3.011200325832e-09,1.2,3.011200325832e-09,0,3.011200325832e-09,0.6579487200442191,3.011200325832e-09,0.151759065057404,3.011200325832e-09,1.2,3.011200325832e-09,1.2,3.011200325832e-09,-3.873609999173006e-05
3.013228998537e-09,1.2,3.013228998537e-09,0,3.013228998537e-09,0.7918642441416657,3.013228998537e-09,0.07646633745795836,3.013228998537e-09,1.2,3.013228998537e-09,1.2,3.013228998537e-09,-3.299044892171345e-05
3.015196893469e-09,1.2,3.015196893469e-09,0,3.015196893469e-09,0.9196769168984512,3.015196893469e-09,0.04186958834839267,3.015196893469e-09,1.2,3.015196893469e-09,1.2,3.015196893469e-09,-2.590807804047289e-05
3.017307172233e-09,1.2,3.017307172233e-09,0,3.017307172233e-09,1.025497708549686,3.017307172233e-09,0.02362498397321979,3.017307172233e-09,1.2,3.017307172233e-09,1.2,3.017307172233e-09,-1.68754459304734e-05
3.019047385475e-09,1.2,3.019047385475e-09,0,3.019047385475e-09,1.082933822687772,3.019047385475e-09,0.01503857406931708,3.019047385475e-09,1.2,3.019047385475e-09,1.2,3.019047385475e-09,-1.150815355885959e-05
3.021437432147e-09,1.2,3.021437432147e-09,0,3.021437432147e-09,1.132627142488312,3.021437432147e-09,0.008291849330006935,3.021437432147e-09,1.2,3.021437432147e-09,1.2,3.021437432147e-09,-6.580824541043309e-06
3.023733600294e-09,1.2,3.023733600294e-09,0,3.023733600294e-09,1.16055739793195,3.023733600294e-09,0.004797432283318501,3.023733600294e-09,1.2,3.023733600294e-09,1.2,3.023733600294e-09,-4.04210623732631e-06
3.026290458116e-09,1.2,3.026290458116e-09,0,3.026290458116e-09,1.178448137742001,3.026290458116e-09,0.002616925681016729,3.026290458116e-09,1.2,3.026290458116e-09,1.2,3.026290458116e-09,-2.090988743466453e-06
3.029289579604e-09,1.2,3.029289579604e-09,0,3.029289579604e-09,1.189529780254629,3.029289579604e-09,0.001271815602915554,3.029289579604e-09,1.2,3.029289579604e-09,1.2,3.029289579604e-09,-1.154421977546798e-06
3.032935029012e-09,1.2,3.032935029012e-09,0,3.032935029012e-09,1.195744036068094,3.032935029012e-09,0.0005187966000087535,3.032935029012e-09,1.2,3.032935029012e-09,1.2,3.032935029012e-09,-3.470146177898966e-07
3.037417245103e-09,1.2,3.037417245103e-09,0,3.037417245103e-09,1.198657059616756,3.037417245103e-09,0.0001630937597461808,3.037417245103e-09,1.2,3.037417245103e-09,1.2,3.037417245103e-09,-2.255525354342589e-07
3.043166895305e-09,1.2,3.043166895305e-09,0,3.043166895305e-09,1.199730538484447,3.043166895305e-09,3.368753295617608e-05,3.043166895305e-09,1.2,3.043166895305e-09,1.2,3.043166895305e-09,5.968397078597224e-08
3.050953959721e-09,1.2,3.050953959721e-09,0,3.050953959721e-09,1.199985957046508,3.050953959721e-09,9.895608894179359e-07,3.050953959721e-09,1.2,3.050953959721e-09,1.2,3.050953959721e-09,-8.911789612385989e-08
3.06249861823e-09,1.2,3.06249861823e-09,0,3.06249861823e-09,1.199999453190681,3.06249861823e-09,9.898232058908307e-07,3.06249861823e-09,1.2,3.06249861823e-09,1.2,3.06249861823e-09,8.693105221283565e-08
3.081879181372e-09,1.2,3.081879181372e-09,0,3.081879181372e-09,1.199998713922932,3.081879181372e-09,-2.386826723740447e-07,3.081879181372e-09,1.2,3.081879181372e-09,1.2,3.081879181372e-09,-8.760121503538376e-08
3.120640307656e-09,1.2,3.120640307656e-09,0,3.120640307656e-09,1.199997783127168,3.120640307656e-09,9.897512871267736e-07,3.120640307656e-09,1.2,3.120640307656e-09,1.2,3.120640307656e-09,8.663700888829163e-08
3.198162560224e-09,1.2,3.198162560224e-09,0,3.198162560224e-09,1.199999406383012,3.198162560224e-09,4.97260500990904e-09,3.198162560224e-09,1.2,3.198162560224e-09,1.2,3.198162560224e-09,-8.745006987420497e-08
3.353207065359e-09,1.2,3.353207065359e-09,0,3.353207065359e-09,1.199997028001957,3.353207065359e-09,5.110069720176517e-07,3.353207065359e-09,1.2,3.353207065359e-09,1.2,3.353207065359e-09,8.649208939048998e-08
3.66329607563e-09,1.2,3.66329607563e-09,0,3.66329607563e-09,1.200000216011568,3.66329607563e-09,5.88074116934884e-07,3.66329607563e-09,1.2,3.66329607563e-09,1.2,3.66329607563e-09,-8.730729419147738e-08
4.283474096172e-09,1.2,4.283474096172e-09,0,4.283474096172e-09,1.199996238372432,4.283474096172e-09,-7.43924181715147e-08,4.283474096172e-09,1.2,4.283474096172e-09,1.2,4.283474096172e-09,8.635976230271562e-08
4.923474096171999e-09,1.2,4.923474096171999e-09,0,4.923474096171999e-09,1.200000995923242,4.923474096171999e-09,1.172689717067037e-06,4.923474096171999e-09,1.2,4.923474096171999e-09,1.2,4.923474096171999e-09,-8.717877598683742e-08
5.563474096172e-09,1.2,5.563474096172e-09,0,5.563474096172e-09,1.199995851324642,5.563474096172e-09,-3.764156621268421e-07,5.563474096172e-09,1.2,5.563474096172e-09,1.2,5.563474096172e-09,8.629043622311316e-08
5.999999999999999e-09,1.2,5.999999999999999e-09,0,5.999999999999999e-09,1.200000966637872,5.999999999999999e-09,1.176168741174148e-06,5.999999999999999e-09,1.2,5.999999999999999e-09,1.2,5.999999999999999e-09,-8.717028264375292e-08
6.000005212672999e-09,1.2,6.000005212672999e-09,0,6.000005212672999e-09,1.199967135149073,6.000005212672999e-09,-4.535008245432771e-05,6.000005212672999e-09,1.2,6.000005212672999e-09,1.199374479166637,6.000005212672999e-09,-1.825428715000116e-06
6.000015638019999e-09,1.2,6.000015638019999e-09,0,6.000015638019999e-09,1.199887546557421,6.000015638019999e-09,-0.0001644922861336394,6.000015638019999e-09,1.2,6.000015638019999e-09,1.198123437499909,6.000015638019999e-09,-3.516992758044729e-06
6.000036488714999e-09,1.2,6.000036488714999e-09,0,6.000036488714999e-09,1.19973004088013,6.000036488714999e-09,-0.0004080907338886561,6.000036488714999e-09,1.2,6.000036488714999e-09,1.195621354166455,6.000036488714999e-09,-2.696943356703649e-06
6.000078190103999e-09,1.2,6.000078190103999e-09,0,6.000078190103999e-09,1.199427437407208,6.000078190103999e-09,-0.0008681905542339202,6.000078190103999e-09,1.2,6.000078190103999e-09,1.190617187499547,6.000078190103999e-09,-3.169170373481005e-06
6.000161592880999e-09,1.2,6.000161592880999e-09,0,6.000161592880999e-09,1.198843038850407,6.000161592880999e-09,-0.001747086083450018,6.000161592880999e-09,1.2,6.000161592880999e-09,1.180608854165731,6.000161592880999e-09,-2.642980537092597e-06
6.000328398437e-09,1.2,6.000328398437e-09,0,6.000328398437e-09,1.197771800464641,6.000328398437e-09,-0.00330768261755671,6.000328398437e-09,1.2,6.000328398437e-09,1.160592187498098,6.000328398437e-09,-2.877422459243547e-06
6.000662009547999e-09,1.2,6.000662009547999e-09,0,6.000662009547999e-09,1.195940298871996,6.000662009547999e-09,-0.00582203463402914,6.000662009547999e-09,1.2,6.000662009547999e-09,1.120558854162833,6.000662009547999e-09,-2.259773516231999e-06
6.001329231769999e-09,1.2,6.001329231769999e-09,0,6.001329231769999e-09,1.193200839971089,6.001329231769999e-09,-0.009152469833682441,6.001329231769999e-09,1.2,6.001329231769999e-09,1.040492187492303,6.001329231769999e-09,-2.374510171593308e-06
6.002663676214999e-09,1.2,6.002663676214999e-09,0,6.002663676214999e-09,1.189830286921152,6.002663676214999e-09,-0.01247393855022232,6.002663676214999e-09,1.2,6.002663676214999e-09,0.8803588541512417,6.002663676214999e-09,-1.917929268136364e-06
