/BL (modelFiles=gpdk045.scs:ss) X,/BL (modelFiles=gpdk045.scs:ss) Y,/BLB (modelFiles=gpdk045.scs:ss) X,/BLB (modelFiles=gpdk045.scs:ss) Y,/Q (modelFiles=gpdk045.scs:ss) X,/Q (modelFiles=gpdk045.scs:ss) Y,/QB (modelFiles=gpdk045.scs:ss) X,/QB (modelFiles=gpdk045.scs:ss) Y,/VDD (modelFiles=gpdk045.scs:ss) X,/VDD (modelFiles=gpdk045.scs:ss) Y,/WL (modelFiles=gpdk045.scs:ss) X,/WL (modelFiles=gpdk045.scs:ss) Y,/V0/PLUS (modelFiles=gpdk045.scs:ss) X,/V0/PLUS (modelFiles=gpdk045.scs:ss) Y
0,0,0,1,0,4.364410228466314e-08,0,0.9999998688782993,0,1,0,0,0,-1.675214696354001e-11
3.2e-11,0,3.2e-11,1,3.2e-11,4.364410521249744e-08,3.2e-11,0.999999868878419,3.2e-11,1,3.2e-11,0,3.2e-11,-1.675207941792303e-11
9.599999999999999e-11,0,9.599999999999999e-11,1,9.599999999999999e-11,4.364410264442794e-08,9.599999999999999e-11,0.9999998688784406,9.599999999999999e-11,1,9.599999999999999e-11,0,9.599999999999999e-11,-1.67520781320901e-11
2.24e-10,0,2.24e-10,1,2.24e-10,4.364410338921261e-08,2.24e-10,0.9999998688785556,2.24e-10,1,2.24e-10,0,2.24e-10,-1.675206708383442e-11
4.8e-10,0,4.8e-10,1,4.8e-10,4.364410021909127e-08,4.8e-10,0.9999998688784111,4.8e-10,1,4.8e-10,0,4.8e-10,-1.675208153356047e-11
9.919999999999999e-10,0,9.919999999999999e-10,1,9.919999999999999e-10,4.364410464969787e-08,9.919999999999999e-10,0.9999998688785356,9.919999999999999e-10,1,9.919999999999999e-10,0,9.919999999999999e-10,-1.675206860865912e-11
1.632e-09,0,1.632e-09,1,1.632e-09,4.364409932588849e-08,1.632e-09,0.9999998688783234,1.632e-09,1,1.632e-09,0,1.632e-09,-1.675209001923584e-11
1.99e-09,0,1.99e-09,1,1.99e-09,4.364410671403764e-08,1.99e-09,0.9999998688786719,1.99e-09,1,1.99e-09,0,1.99e-09,-1.675205524596924e-11
1.990083416666e-09,0.008341666666664842,1.990083416666e-09,0.9916583333333352,1.990083416666e-09,3.12164950734904e-07,1.990083416666e-09,0.9999992635326475,1.990083416666e-09,1,1.990083416666e-09,0,1.990083416666e-09,-1.235328115533411e-09
1.99025025e-09,0.02502499999999453,1.99025025e-09,0.9749750000000055,1.99025025e-09,9.783121339432727e-08,1.99025025e-09,0.9999992180129961,1.99025025e-09,1,1.99025025e-09,0,1.99025025e-09,6.095853948540891e-10
1.990583916666e-09,0.05839166666665389,1.990583916666e-09,0.9416083333333461,1.990583916666e-09,-5.958475236208832e-08,1.990583916666e-09,0.9999992159997687,1.990583916666e-09,1,1.990583916666e-09,0,1.990583916666e-09,-8.736349512600144e-10
1.991142573868e-09,0.1142573868435774,1.991142573868e-09,0.8857426131564226,1.991142573868e-09,-1.111872860838605e-07,1.991142573868e-09,0.9999992531187956,1.991142573868e-09,1,1.991142573868e-09,0,1.991142573868e-09,7.109067102212563e-10
1.992259888271e-09,0.2259888271974246,1.992259888271e-09,0.7740111728025755,1.992259888271e-09,-1.350346289443844e-07,1.992259888271e-09,0.9999993486113331,1.992259888271e-09,1,1.992259888271e-09,0,1.992259888271e-09,-8.10192443108978e-10
1.994494517079e-09,0.4494517079051188,1.994494517079e-09,0.5505482920948812,1.994494517079e-09,-7.760816688422551e-08,1.994494517079e-09,0.9999994703704518,1.994494517079e-09,1,1.994494517079e-09,0,1.994494517079e-09,7.380950443034861e-10
1.997247258539e-09,0.7247258539525387,1.997247258539e-09,0.2752741460474613,1.997247258539e-09,-1.517118549211238e-08,1.997247258539e-09,0.9999996186282326,1.997247258539e-09,1,1.997247258539e-09,0,1.997247258539e-09,-8.007098752058371e-10
1.999999999999e-09,0.9999999999999586,1.999999999999e-09,4.141131881851834e-14,1.999999999999e-09,4.106667440692628e-08,1.999999999999e-09,0.9999996978886651,1.999999999999e-09,1,1.999999999999e-09,0,1.999999999999e-09,7.411312681897756e-10
2.000083416666e-09,1,2.000083416666e-09,0,2.000083416666e-09,-5.076250455356953e-07,2.000083416666e-09,1.000000273289934,2.000083416666e-09,1,2.000083416666e-09,0,2.000083416666e-09,6.232641911377553e-10
2.00025025e-09,1,2.00025025e-09,0,2.00025025e-09,-4.831303298990817e-07,2.00025025e-09,1.000000282599345,2.00025025e-09,1,2.00025025e-09,0,2.00025025e-09,-4.886478087113514e-10
2.000583916666e-09,1,2.000583916666e-09,0,2.000583916666e-09,-4.192082600407812e-07,2.000583916666e-09,1.000000264903037,2.000583916666e-09,1,2.000583916666e-09,0,2.000583916666e-09,5.370354877813211e-10
2.001143362464e-09,1,2.001143362464e-09,0,2.001143362464e-09,-3.437298945461331e-07,2.001143362464e-09,1.000000265874026,2.001143362464e-09,1,2.001143362464e-09,0,2.001143362464e-09,-4.541950086551315e-10
2.00226225406e-09,1,2.00226225406e-09,0,2.00226225406e-09,-2.174493171770019e-07,2.00226225406e-09,1.000000216424798,2.00226225406e-09,1,2.00226225406e-09,0,2.00226225406e-09,4.958196211092157e-10
2.004500037252e-09,1,2.004500037252e-09,0,2.004500037252e-09,-8.976537212256805e-08,2.004500037252e-09,1.000000146112832,2.004500037252e-09,1,2.004500037252e-09,0,2.004500037252e-09,-4.657448026699683e-10
2.008975603636e-09,1,2.008975603636e-09,0,2.008975603636e-09,1.516053653861993e-08,2.008975603636e-09,0.9999999937463731,2.008975603636e-09,1,2.008975603636e-09,0,2.008975603636e-09,4.619893155824082e-10
2.017926736404e-09,1,2.017926736404e-09,0,2.017926736404e-09,4.708574677502856e-08,2.017926736404e-09,0.9999998832931125,2.017926736404e-09,1,2.017926736404e-09,0,2.017926736404e-09,-4.859455367256933e-10
2.03582900194e-09,1,2.03582900194e-09,0,2.03582900194e-09,5.731194736133778e-08,2.03582900194e-09,0.999999832412654,2.03582900194e-09,1,2.03582900194e-09,0,2.03582900194e-09,4.487519348594521e-10
2.071633533012e-09,1,2.071633533012e-09,0,2.071633533012e-09,5.422631849545845e-08,2.071633533012e-09,0.9999998515097465,2.071633533012e-09,1,2.071633533012e-09,0,2.071633533012e-09,-4.868512683928748e-10
2.143242595156e-09,1,2.143242595156e-09,0,2.143242595156e-09,5.675568143354703e-08,2.143242595156e-09,0.9999998354591862,2.143242595156e-09,1,2.143242595156e-09,0,2.143242595156e-09,4.483658778955008e-10
2.286460719444e-09,1,2.286460719444e-09,0,2.286460719444e-09,5.436646775549191e-08,2.286460719444e-09,0.9999998506319144,2.286460719444e-09,1,2.286460719444e-09,0,2.286460719444e-09,-4.866153982483846e-10
2.572896968019e-09,1,2.572896968019e-09,0,2.572896968019e-09,5.670945529995074e-08,2.572896968019e-09,0.9999998357891074,2.572896968019e-09,1,2.572896968019e-09,0,2.572896968019e-09,4.482417489455888e-10
2.99e-09,1,2.99e-09,0,2.99e-09,5.438831310462538e-08,2.99e-09,0.999999850467761,2.99e-09,1,2.99e-09,0,2.99e-09,-4.865442027815539e-10
2.990005213541e-09,1,2.990005213541e-09,0,2.990005213541e-09,1.735737064035582e-05,2.990005213541e-09,1.000018504651932,2.990005213541e-09,1,2.990005213541e-09,0.0005213541666691376,2.990005213541e-09,7.55291745617044e-07
2.990015640625e-09,1,2.990015640625e-09,0,2.990015640625e-09,5.481722616634058e-05,2.990015640625e-09,1.000059061833618,2.990015640625e-09,1,2.990015640625e-09,0.001564062500007413,2.990015640625e-09,1.192296367434599e-06
2.990036494791e-09,1,2.990036494791e-09,0,2.990036494791e-09,0.0001256241566697169,2.990036494791e-09,1.000137668242696,2.990036494791e-09,1,2.990036494791e-09,0.003649479166683963,2.990036494791e-09,8.981122908646971e-07
2.990078203125e-09,1,2.990078203125e-09,0,2.990078203125e-09,0.0002641287328047843,2.990078203125e-09,1.000292239697482,2.990078203125e-09,1,2.990078203125e-09,0.007820312500037063,2.990078203125e-09,1.121709315940231e-06
2.990161619791e-09,1,2.990161619791e-09,0,2.990161619791e-09,0.0005366370338413546,2.990161619791e-09,1.000597806995161,2.990161619791e-09,1,2.990161619791e-09,0.01616197916674326,2.990161619791e-09,9.323562860474798e-07
2.990328453125e-09,1,2.990328453125e-09,0,2.990328453125e-09,0.001055049858200979,2.990328453125e-09,1.001187409025614,2.990328453125e-09,1,2.990328453125e-09,0.03284531250015567,2.990328453125e-09,1.118181072517448e-06
2.990662119791e-09,1,2.990662119791e-09,0,2.990662119791e-09,0.002002158708861718,2.990662119791e-09,1.002293345130225,2.990662119791e-09,1,2.990662119791e-09,0.06621197916698048,2.990662119791e-09,9.586686586524888e-07
2.991329453125e-09,1,2.991329453125e-09,0,2.991329453125e-09,0.003577316350711447,2.991329453125e-09,1.004238865171159,2.991329453125e-09,1,2.991329453125e-09,0.1329453125006301,2.991329453125e-09,1.157672079177363e-06
2.992664119791e-09,1,2.992664119791e-09,0,2.992664119791e-09,0.005803898045795996,2.992664119791e-09,1.007300782234693,2.992664119791e-09,1,2.992664119791e-09,0.2664119791679293,2.992664119791e-09,1.058495331425691e-06
2.995333453125e-09,1,2.995333453125e-09,0,2.995333453125e-09,0.009814780034023193,2.995333453125e-09,1.010935012084612,2.995333453125e-09,1,2.995333453125e-09,0.5333453125025277,2.995333453125e-09,1.422256943486268e-06
2.997666726562e-09,1,2.997666726562e-09,0,2.997666726562e-09,0.02189585727896737,2.997666726562e-09,1.002188294690585,2.997666726562e-09,1,2.997666726562e-09,0.7666726562512639,2.997666726562e-09,-3.044395105447813e-07
2.999006681384e-09,1,2.999006681384e-09,0,2.999006681384e-09,0.0369548448430016,2.999006681384e-09,0.9824583151059454,2.999006681384e-09,1,2.999006681384e-09,0.9006681384127625,2.999006681384e-09,-4.448459034645063e-06
2.999503340692e-09,1,2.999503340692e-09,0,2.999503340692e-09,0.04496226100296426,2.999503340692e-09,0.9701606103316559,2.999503340692e-09,1,2.999503340692e-09,0.9503340692063813,2.999503340692e-09,-5.562566709635328e-06
3e-09,1,3e-09,0,3e-09,0.05456745743596003,3e-09,0.9545114905256267,3e-09,1,3e-09,1,3e-09,-7.565372395232783e-06
3.000005213541e-09,1,3.000005213541e-09,0,3.000005213541e-09,0.05463261997100579,3.000005213541e-09,0.9543043657485095,3.000005213541e-09,1,3.000005213541e-09,1,3.000005213541e-09,-8.786458245923031e-06
3.000015640625e-09,1,3.000015640625e-09,0,3.000015640625e-09,0.0547437970533727,3.000015640625e-09,0.9538803446544363,3.000015640625e-09,1,3.000015640625e-09,1,3.000015640625e-09,-9.89703123239311e-06
3.000020854166e-09,1,3.000020854166e-09,0,3.000020854166e-09,0.05479391126496756,3.000020854166e-09,0.9536655740713499,3.000020854166e-09,1,3.000020854166e-09,1,3.000020854166e-09,-9.679622880158915e-06
3.000023460937e-09,1,3.000023460937e-09,0,3.000023460937e-09,0.05482063967290422,3.000023460937e-09,0.9535590350809668,3.000023460937e-09,1,3.000023460937e-09,1,3.000023460937e-09,-9.634617712276491e-06
3.000028674479e-09,1,3.000028674479e-09,0,3.000028674479e-09,0.05487332917155296,3.000028674479e-09,0.9533456246724372,3.000028674479e-09,1,3.000028674479e-09,1,3.000028674479e-09,-9.663404895657952e-06
3.000031281249e-09,1,3.000031281249e-09,0,3.000031281249e-09,0.05489966858769041,3.000031281249e-09,0.9532389537655066,3.000031281249e-09,1,3.000031281249e-09,1,3.000031281249e-09,-9.649974621016757e-06
3.000036494791e-09,1,3.000036494791e-09,0,3.000036494791e-09,0.05495232761917465,3.000036494791e-09,0.9530256265155997,3.000036494791e-09,1,3.000036494791e-09,1,3.000036494791e-09,-9.661644155287978e-06
3.000046921874e-09,1,3.000046921874e-09,0,3.000046921874e-09,0.05505763045313635,3.000046921874e-09,0.9525990897335317,3.000046921874e-09,1,3.000046921874e-09,1,3.000046921874e-09,-9.667059829996747e-06
3.000067776041e-09,1,3.000067776041e-09,0,3.000067776041e-09,0.05526815846897642,3.000067776041e-09,0.951746469781467,3.000067776041e-09,1,3.000067776041e-09,1,3.000067776041e-09,-9.690527058406685e-06
3.000109484374e-09,1,3.000109484374e-09,0,3.000109484374e-09,0.05568895281039401,3.000109484374e-09,0.9500430087271485,3.000109484374e-09,1,3.000109484374e-09,1,3.000109484374e-09,-9.725537300434378e-06
3.000192901041e-09,1,3.000192901041e-09,0,3.000192901041e-09,0.05652966754262091,3.000192901041e-09,0.9466428581152637,3.000192901041e-09,1,3.000192901041e-09,1,3.000192901041e-09,-9.802686521580443e-06
3.000359734374e-09,1,3.000359734374e-09,0,3.000359734374e-09,0.05820909087355482,3.000359734374e-09,0.9398672406718229,3.000359734374e-09,1,3.000359734374e-09,1,3.000359734374e-09,-9.935382121961632e-06
3.000693401041e-09,1,3.000693401041e-09,0,3.000693401041e-09,0.06157128911394381,3.000693401041e-09,0.9264012788562261,3.000693401041e-09,1,3.000693401041e-09,1,3.000693401041e-09,-1.017192493910061e-05
3.001360734374e-09,1,3.001360734374e-09,0,3.001360734374e-09,0.06839092231689695,3.001360734374e-09,0.8997930585735409,3.001360734374e-09,1,3.001360734374e-09,1,3.001360734374e-09,-1.054416754195024e-05
3.002695401041e-09,1,3.002695401041e-09,0,3.002695401041e-09,0.08286134181110694,3.002695401041e-09,0.8483577454582093,3.002695401041e-09,1,3.002695401041e-09,1,3.002695401041e-09,-1.115922550904547e-05
3.005364734374e-09,1,3.005364734374e-09,0,3.005364734374e-09,0.1158406231141599,3.005364734374e-09,0.7518945491826998,3.005364734374e-09,1,3.005364734374e-09,1,3.005364734374e-09,-1.133107908814863e-05
3.008714149638e-09,1,3.008714149638e-09,0,3.008714149638e-09,0.1587259867028682,3.008714149638e-09,0.6337259880724222,3.008714149638e-09,1,3.008714149638e-09,1,3.008714149638e-09,-1.049280506479255e-05
3.012107021227e-09,1,3.012107021227e-09,0,3.012107021227e-09,0.1951778385184023,3.012107021227e-09,0.509988690332966,3.012107021227e-09,1,3.012107021227e-09,1,3.012107021227e-09,-1.005345582513098e-05
3.016024629339e-09,1,3.016024629339e-09,0,3.016024629339e-09,0.2289276125873089,3.016024629339e-09,0.3703661669202052,3.016024629339e-09,1,3.016024629339e-09,1,3.016024629339e-09,-1.053613177591024e-05
3.020491661096e-09,1,3.020491661096e-09,0,3.020491661096e-09,0.2792888309702322,3.020491661096e-09,0.2329242670374331,3.020491661096e-09,1,3.020491661096e-09,1,3.020491661096e-09,-1.215459864932771e-05
3.024100214641e-09,1,3.024100214641e-09,0,3.024100214641e-09,0.3461195525883373,3.024100214641e-09,0.1461891219432462,3.024100214641e-09,1,3.024100214641e-09,1,3.024100214641e-09,-1.280777479055048e-05
3.027788587624e-09,1,3.027788587624e-09,0,3.027788587624e-09,0.4453509303411938,3.027788587624e-09,0.08723616647679606,3.027788587624e-09,1,3.027788587624e-09,1,3.027788587624e-09,-1.253495961438154e-05
3.03251691288e-09,1,3.03251691288e-09,0,3.03251691288e-09,0.6022452065996997,3.03251691288e-09,0.04799186628772203,3.03251691288e-09,1,3.03251691288e-09,1,3.03251691288e-09,-1.205866679137946e-05
3.036686058601e-09,1,3.036686058601e-09,0,3.036686058601e-09,0.736458167537194,3.036686058601e-09,0.03109996321342192,3.036686058601e-09,1,3.036686058601e-09,1,3.036686058601e-09,-1.082479593921078e-05
3.039976831938e-09,1,3.039976831938e-09,0,3.039976831938e-09,0.8242567480996501,3.039976831938e-09,0.02195286346844738,3.039976831938e-09,1,3.039976831938e-09,1,3.039976831938e-09,-8.881294000012917e-06
3.043589212824e-09,1,3.043589212824e-09,0,3.043589212824e-09,0.8942374725747695,3.043589212824e-09,0.01382360793727659,3.043589212824e-09,1,3.043589212824e-09,1,3.043589212824e-09,-6.050474441506611e-06
3.047967172686e-09,1,3.047967172686e-09,0,3.047967172686e-09,0.9445957342714097,3.047967172686e-09,0.007161487638150599,3.047967172686e-09,1,3.047967172686e-09,1,3.047967172686e-09,-3.269820128329499e-06
3.052029326045e-09,1,3.052029326045e-09,0,3.052029326045e-09,0.9698087449109427,3.052029326045e-09,0.00379475131364502,3.052029326045e-09,1,3.052029326045e-09,1,3.052029326045e-09,-1.907088459596255e-06
3.056370626129e-09,1,3.056370626129e-09,0,3.056370626129e-09,0.984402825954995,3.056370626129e-09,0.001932536880638562,3.056370626129e-09,1,3.056370626129e-09,1,3.056370626129e-09,-9.222922907756616e-07
3.061121416124e-09,1,3.061121416124e-09,0,3.061121416124e-09,0.9925262141917476,3.061121416124e-09,0.0009215225978370042,3.061121416124e-09,1,3.061121416124e-09,1,3.061121416124e-09,-5.222461399299251e-07
3.067000278362e-09,1,3.067000278362e-09,0,3.067000278362e-09,0.9970792353520525,3.067000278362e-09,0.0003595364603375094,3.067000278362e-09,1,3.067000278362e-09,1,3.067000278362e-09,-1.34158852320406e-07
3.074283140497e-09,1,3.074283140497e-09,0,3.074283140497e-09,0.9991387132176623,3.074283140497e-09,0.0001059719778964732,3.074283140497e-09,1,3.074283140497e-09,1,3.074283140497e-09,-1.054987765915278e-07
3.08377653681e-09,1,3.08377653681e-09,0,3.08377653681e-09,0.9998540758332561,3.08377653681e-09,1.798429734653932e-05,3.08377653681e-09,1,3.08377653681e-09,1,3.08377653681e-09,4.131686556363698e-08
3.096750550667e-09,1,3.096750550667e-09,0,3.096750550667e-09,0.999998362877355,3.096750550667e-09,2.091931045457485e-07,3.096750550667e-09,1,3.096750550667e-09,1,3.096750550667e-09,-5.064903120219069e-08
3.116358068033e-09,1,3.116358068033e-09,0,3.116358068033e-09,1.000000001076784,3.116358068033e-09,3.202405452525009e-08,3.116358068033e-09,1,3.116358068033e-09,1,3.116358068033e-09,5.045191903069523e-08
3.150431199494e-09,1,3.150431199494e-09,0,3.150431199494e-09,1.000000011846295,3.150431199494e-09,-4.114138969733773e-09,3.150431199494e-09,1,3.150431199494e-09,1,3.150431199494e-09,-5.042807924132403e-08
3.218577462416e-09,1,3.218577462416e-09,0,3.218577462416e-09,0.9999996028139836,3.218577462416e-09,6.879721574680997e-08,3.218577462416e-09,1,3.218577462416e-09,1,3.218577462416e-09,5.036406044425944e-08
3.354869988259e-09,1,3.354869988259e-09,0,3.354869988259e-09,1.000000396827215,3.354869988259e-09,-9.588120325457825e-09,3.354869988259e-09,1,3.354869988259e-09,1,3.354869988259e-09,-5.03625839934738e-08
3.627455039947e-09,1,3.627455039947e-09,0,3.627455039947e-09,0.9999989974584303,3.627455039947e-09,6.572093335624383e-08,3.627455039947e-09,1,3.627455039947e-09,1,3.627455039947e-09,5.029068429395562e-08
4.172625143321e-09,1,4.172625143321e-09,0,4.172625143321e-09,1.000001101246967,4.172625143321e-09,-4.030454789631683e-09,4.172625143321e-09,1,4.172625143321e-09,1,4.172625143321e-09,-5.028679637928796e-08
4.812625143321e-09,1,4.812625143321e-09,0,4.812625143321e-09,0.9999982979594501,4.812625143321e-09,5.930691484293177e-08,4.812625143321e-09,1,4.812625143321e-09,1,4.812625143321e-09,5.021805186967323e-08
5.452625143320999e-09,1,5.452625143320999e-09,0,5.452625143320999e-09,1.000001436994614,5.452625143320999e-09,3.281301616768741e-09,5.452625143320999e-09,1,5.452625143320999e-09,1,5.452625143320999e-09,-5.024817011550627e-08
5.999999999999999e-09,1,5.999999999999999e-09,0,5.999999999999999e-09,0.9999983568860135,5.999999999999999e-09,5.143276304638179e-08,5.999999999999999e-09,1,5.999999999999999e-09,1,5.999999999999999e-09,5.021571310798319e-08
6.000005213541e-09,1,6.000005213541e-09,0,6.000005213541e-09,0.999974974843552,6.000005213541e-09,-3.659296483973283e-05,6.000005213541e-09,1,6.000005213541e-09,0.9994786458333722,6.000005213541e-09,-1.295928354286072e-06
6.000015640625e-09,1,6.000015640625e-09,0,6.000015640625e-09,0.9999206048323931,6.000015640625e-09,-0.0001257843390354186,6.000015640625e-09,1,6.000015640625e-09,0.9984359375001166,6.000015640625e-09,-2.426645401180525e-06
6.000020854165999e-09,1,6.000020854165999e-09,0,6.000020854165999e-09,0.9998920199334684,6.000020854165999e-09,-0.0001736362318973164,6.000020854165999e-09,1,6.000020854165999e-09,0.9979145833334888,6.000020854165999e-09,-2.138932111752902e-06
6.000031281248999e-09,1,6.000031281248999e-09,0,6.000031281248999e-09,0.9998374439121772,6.000031281248999e-09,-0.0002631268904366045,6.000031281248999e-09,1,6.000031281248999e-09,0.9968718750002332,6.000031281248999e-09,-2.096553367394712e-06
6.000052135415999e-09,1,6.000052135415999e-09,0,6.000052135415999e-09,0.9997283039179734,6.000052135415999e-09,-0.000442269622241397,6.000052135415999e-09,1,6.000052135415999e-09,0.994786458333722,6.000052135415999e-09,-2.109661406290154e-06
6.000093843749e-09,1,6.000093843749e-09,0,6.000093843749e-09,0.9995135078540661,6.000093843749e-09,-0.0007932609678827386,6.000093843749e-09,1,6.000093843749e-09,0.9906156250006996,6.000093843749e-09,-2.064147730086125e-06
6.000177260415999e-09,1,6.000177260415999e-09,0,6.000177260415999e-09,0.9990946869010792,6.000177260415999e-09,-0.00147202298988985,6.000177260415999e-09,1,6.000177260415999e-09,0.9822739583346548,6.000177260415999e-09,-2.044699092486103e-06
6.000344093748999e-09,1,6.000344093748999e-09,0,6.000344093748999e-09,0.9983000304447069,6.000344093748999e-09,-0.002739150668716049,6.000344093748999e-09,1,6.000344093748999e-09,0.9655906250025652,6.000344093748999e-09,-1.946367137679693e-06
