/BL (modelFiles=gpdk045.scs:tt) X,/BL (modelFiles=gpdk045.scs:tt) Y,/BLB (modelFiles=gpdk045.scs:tt) X,/BLB (modelFiles=gpdk045.scs:tt) Y,/Q (modelFiles=gpdk045.scs:tt) X,/Q (modelFiles=gpdk045.scs:tt) Y,/QB (modelFiles=gpdk045.scs:tt) X,/QB (modelFiles=gpdk045.scs:tt) Y,/VDD (modelFiles=gpdk045.scs:tt) X,/VDD (modelFiles=gpdk045.scs:tt) Y,/WL (modelFiles=gpdk045.scs:tt) X,/WL (modelFiles=gpdk045.scs:tt) Y,/V0/PLUS (modelFiles=gpdk045.scs:tt) X,/V0/PLUS (modelFiles=gpdk045.scs:tt) Y
0,0,0,1,0,4.223779153783402e-08,0,0.9999998753914556,0,1,0,0,0,-2.253589038036118e-11
3.2e-11,0,3.2e-11,1,3.2e-11,4.223779312537131e-08,3.2e-11,0.9999998753915428,3.2e-11,1,3.2e-11,0,3.2e-11,-2.253582247347479e-11
9.599999999999999e-11,0,9.599999999999999e-11,1,9.599999999999999e-11,4.223779168954352e-08,9.599999999999999e-11,0.9999998753915541,9.599999999999999e-11,1,9.599999999999999e-11,0,9.599999999999999e-11,-2.253582147977935e-11
2.24e-10,0,2.24e-10,1,2.24e-10,4.223779211194594e-08,2.24e-10,0.9999998753916299,2.24e-10,1,2.24e-10,0,2.24e-10,-2.253581101597299e-11
4.8e-10,0,4.8e-10,1,4.8e-10,4.223779039643313e-08,4.8e-10,0.9999998753915214,4.8e-10,1,4.8e-10,0,4.8e-10,-2.253582635678067e-11
9.919999999999999e-10,0,9.919999999999999e-10,1,9.919999999999999e-10,4.223779276891974e-08,9.919999999999999e-10,0.9999998753915942,9.919999999999999e-10,1,9.919999999999999e-10,0,9.919999999999999e-10,-2.253581561139133e-11
1.632e-09,0,1.632e-09,1,1.632e-09,4.223778995613667e-08,1.632e-09,0.9999998753914429,1.632e-09,1,1.632e-09,0,1.632e-09,-2.253583717812343e-11
1.99e-09,0,1.99e-09,1,1.99e-09,4.223779394091063e-08,1.99e-09,0.9999998753917074,1.99e-09,1,1.99e-09,0,1.99e-09,-2.253579982352162e-11
1.990083416666e-09,0.008341666666664842,1.990083416666e-09,0.9916583333333352,1.990083416666e-09,3.874545469654104e-07,1.990083416666e-09,0.9999992594743867,1.990083416666e-09,1,1.990083416666e-09,0,1.990083416666e-09,-1.176469810467017e-09
1.99025025e-09,0.02502499999999453,1.99025025e-09,0.9749750000000055,1.99025025e-09,1.994975547694285e-07,1.99025025e-09,0.999999225578311,1.99025025e-09,1,1.99025025e-09,0,1.99025025e-09,5.573433577749033e-10
1.990583916666e-09,0.05839166666665389,1.990583916666e-09,0.9416083333333461,1.990583916666e-09,6.430770341783372e-08,1.990583916666e-09,0.9999992433453559,1.990583916666e-09,1,1.990583916666e-09,0,1.990583916666e-09,-8.45625841658926e-10
1.99115084551e-09,0.1150845510417238,1.99115084551e-09,0.8849154489582762,1.99115084551e-09,1.64800616642217e-08,1.99115084551e-09,0.9999993031922402,1.99115084551e-09,1,1.99115084551e-09,0,1.99115084551e-09,6.457871499040657e-10
1.992284703197e-09,0.2284703197918637,1.992284703197e-09,0.7715296802081363,1.992284703197e-09,-2.461368650847413e-08,1.992284703197e-09,0.9999994212282569,1.992284703197e-09,1,1.992284703197e-09,0,1.992284703197e-09,-7.853103301716326e-10
1.994552418572e-09,0.4552418572921434,1.994552418572e-09,0.5447581427078566,1.994552418572e-09,5.722609089209314e-09,1.994552418572e-09,0.9999995725324861,1.994552418572e-09,1,1.994552418572e-09,0,1.994552418572e-09,6.846336770320232e-10
1.997276209286e-09,0.727620928646051,1.997276209286e-09,0.272379071353949,1.997276209286e-09,2.880797269752701e-08,1.997276209286e-09,0.9999997103921635,1.997276209286e-09,1,1.997276209286e-09,0,1.997276209286e-09,-7.663321946054871e-10
1.999999999999e-09,0.9999999999999586,1.999999999999e-09,4.141131881851834e-14,1.999999999999e-09,5.669398967389251e-08,1.999999999999e-09,0.9999997691356497,1.999999999999e-09,1,1.999999999999e-09,0,1.999999999999e-09,6.923407666252086e-10
2.000083416666e-09,1,2.000083416666e-09,0,2.000083416666e-09,-5.118968947572006e-07,2.000083416666e-09,1.000000381405968,2.000083416666e-09,1,2.000083416666e-09,0,2.000083416666e-09,6.284785971523458e-10
2.00025025e-09,1,2.00025025e-09,0,2.00025025e-09,-4.734793504605935e-07,2.00025025e-09,1.000000387186988,2.00025025e-09,1,2.00025025e-09,0,2.00025025e-09,-4.342309681191687e-10
2.000583916666e-09,1,2.000583916666e-09,0,2.000583916666e-09,-3.883805450393399e-07,2.000583916666e-09,1.000000359158943,2.000583916666e-09,1,2.000583916666e-09,0,2.000583916666e-09,5.344899852070935e-10
2.001151006876e-09,1,2.001151006876e-09,0,2.001151006876e-09,-2.898462956353978e-07,2.001151006876e-09,1.000000339580364,2.001151006876e-09,1,2.001151006876e-09,0,2.001151006876e-09,-4.112163187485557e-10
2.002285187297e-09,1,2.002285187297e-09,0,2.002285187297e-09,-1.478617477329404e-07,2.002285187297e-09,1.000000249540607,2.002285187297e-09,1,2.002285187297e-09,0,2.002285187297e-09,4.768831493478221e-10
2.004553548138e-09,1,2.004553548138e-09,0,2.004553548138e-09,-3.338595092145773e-08,2.004553548138e-09,1.000000119152803,2.004553548138e-09,1,2.004553548138e-09,0,2.004553548138e-09,-4.427429331087861e-10
2.00909026982e-09,1,2.00909026982e-09,0,2.00909026982e-09,3.594684959339231e-08,2.00909026982e-09,0.9999999352936306,2.00909026982e-09,1,2.00909026982e-09,0,2.00909026982e-09,4.260094568118914e-10
2.018163713184e-09,1,2.018163713184e-09,0,2.018163713184e-09,5.190061935887299e-08,2.018163713184e-09,0.9999998567613572,2.018163713184e-09,1,2.018163713184e-09,0,2.018163713184e-09,-4.677264389829688e-10
2.036310599912e-09,1,2.036310599912e-09,0,2.036310599912e-09,5.605403916830307e-08,2.036310599912e-09,0.9999998416863511,2.036310599912e-09,1,2.036310599912e-09,0,2.036310599912e-09,4.147101428391257e-10
2.072604373368e-09,1,2.072604373368e-09,0,2.072604373368e-09,5.297184398273422e-08,2.072604373368e-09,0.9999998547963798,2.072604373368e-09,1,2.072604373368e-09,0,2.072604373368e-09,-4.667539442535254e-10
2.14519192028e-09,1,2.14519192028e-09,0,2.14519192028e-09,5.576410324590234e-08,2.14519192028e-09,0.9999998419805226,2.14519192028e-09,1,2.14519192028e-09,0,2.14519192028e-09,4.141590707303736e-10
2.290367014104e-09,1,2.290367014104e-09,0,2.290367014104e-09,5.309126793595861e-08,2.290367014104e-09,0.9999998546971682,2.290367014104e-09,1,2.290367014104e-09,0,2.290367014104e-09,-4.664718444423492e-10
2.580717201751e-09,1,2.580717201751e-09,0,2.580717201751e-09,5.571169760663925e-08,2.580717201751e-09,0.9999998420138998,2.580717201751e-09,1,2.580717201751e-09,0,2.580717201751e-09,4.140168900782292e-10
2.99e-09,1,2.99e-09,0,2.99e-09,5.3119852778115e-08,2.99e-09,0.9999998546798908,2.99e-09,1,2.99e-09,0,2.99e-09,-4.663905479069349e-10
2.990005213541e-09,1,2.990005213541e-09,0,2.990005213541e-09,2.042496983143519e-05,2.990005213541e-09,1.000021593410827,2.990005213541e-09,1,2.990005213541e-09,0.0005213541666691376,2.990005213541e-09,8.544689355210426e-07
2.990015640625e-09,1,2.990015640625e-09,0,2.990015640625e-09,6.386244490636067e-05,2.990015640625e-09,1.000068391474889,2.990015640625e-09,1,2.990015640625e-09,0.001564062500007413,2.990015640625e-09,1.319739024255261e-06
2.990036494791e-09,1,2.990036494791e-09,0,2.990036494791e-09,0.0001449189428618421,2.990036494791e-09,1.000158481474008,2.990036494791e-09,1,2.990036494791e-09,0.003649479166683963,2.990036494791e-09,9.97630442435429e-07
2.990078203125e-09,1,2.990078203125e-09,0,2.990078203125e-09,0.0003029647761263684,2.990078203125e-09,1.000335273445177,2.990078203125e-09,1,2.990078203125e-09,0.007820312500037063,2.990078203125e-09,1.247709581156291e-06
2.990161619791e-09,1,2.990161619791e-09,0,2.990161619791e-09,0.0006098979717111885,2.990161619791e-09,1.000681561284547,2.990161619791e-09,1,2.990161619791e-09,0.01616197916674326,2.990161619791e-09,1.036040099046028e-06
2.990328453125e-09,1,2.990328453125e-09,0,2.990328453125e-09,0.001180193371580415,2.990328453125e-09,1.001338909294396,2.990328453125e-09,1,2.990328453125e-09,0.03284531250015567,2.990328453125e-09,1.249222602492816e-06
2.990662119791e-09,1,2.990662119791e-09,0,2.990662119791e-09,0.002173742365107583,2.990662119791e-09,1.002532817194366,2.990662119791e-09,1,2.990662119791e-09,0.06621197916698048,2.990662119791e-09,1.075513713035904e-06
2.991329453125e-09,1,2.991329453125e-09,0,2.991329453125e-09,0.00367953394825658,2.991329453125e-09,1.004510712566108,2.991329453125e-09,1,2.991329453125e-09,0.1329453125006301,2.991329453125e-09,1.317669165264798e-06
2.992664119791e-09,1,2.992664119791e-09,0,2.992664119791e-09,0.005492037998083316,2.992664119791e-09,1.007314277769985,2.992664119791e-09,1,2.992664119791e-09,0.2664119791679293,2.992664119791e-09,1.24340841260791e-06
2.995333453125e-09,1,2.995333453125e-09,0,2.995333453125e-09,0.01014174074935164,2.995333453125e-09,1.008701110793078,2.995333453125e-09,1,2.995333453125e-09,0.5333453125025277,2.995333453125e-09,1.453274012885975e-06
2.998067030861e-09,1,2.998067030861e-09,0,2.998067030861e-09,0.03420494848482692,2.998067030861e-09,0.9749647315638112,2.998067030861e-09,1,2.998067030861e-09,0.8067030861162044,2.998067030861e-09,-6.189968957035457e-06
3e-09,1,3e-09,0,3e-09,0.07539001893131311,3e-09,0.8954855015119197,3e-09,1,3e-09,1,3e-09,-1.582334778096399e-05
3.000005213541e-09,1,3.000005213541e-09,0,3.000005213541e-09,0.07549514241795528,3.000005213541e-09,0.8951365678020256,3.000005213541e-09,1,3.000005213541e-09,1,3.000005213541e-09,-1.6567170909847e-05
3.000007820312e-09,1,3.000007820312e-09,0,3.000007820312e-09,0.07554480440842506,3.000007820312e-09,0.8949604180610304,3.000007820312e-09,1,3.000007820312e-09,1,3.000007820312e-09,-1.694640591635667e-05
3.000013033854e-09,1,3.000013033854e-09,0,3.000013033854e-09,0.07563754381420143,3.000013033854e-09,0.8946048136651296,3.000013033854e-09,1,3.000013033854e-09,1,3.000013033854e-09,-1.723352439773244e-05
3.000015640625e-09,1,3.000015640625e-09,0,3.000015640625e-09,0.07568350856511466,3.000015640625e-09,0.8944269934261646,3.000015640625e-09,1,3.000015640625e-09,1,3.000015640625e-09,-1.720489488393775e-05
3.000020854166e-09,1,3.000020854166e-09,0,3.000020854166e-09,0.0757754345000554,3.000020854166e-09,0.8940715196040138,3.000020854166e-09,1,3.000020854166e-09,1,3.000020854166e-09,-1.722481553932702e-05
3.00003128125e-09,1,3.00003128125e-09,0,3.00003128125e-09,0.07595943738272702,3.00003128125e-09,0.8933610915000727,3.00003128125e-09,1,3.00003128125e-09,1,3.00003128125e-09,-1.722172858915289e-05
3.000052135416e-09,1,3.000052135416e-09,0,3.000052135416e-09,0.07632786701332761,3.000052135416e-09,0.8919412562048175,3.000052135416e-09,1,3.000052135416e-09,1,3.000052135416e-09,-1.725632285817973e-05
3.00009384375e-09,1,3.00009384375e-09,0,3.00009384375e-09,0.07706652059936918,3.00009384375e-09,0.8891052053096258,3.00009384375e-09,1,3.00009384375e-09,1,3.00009384375e-09,-1.729477449497826e-05
3.000177260416e-09,1,3.000177260416e-09,0,3.000177260416e-09,0.07855156994186352,3.000177260416e-09,0.8834486367709012,3.000177260416e-09,1,3.000177260416e-09,1,3.000177260416e-09,-1.739919789115114e-05
3.00034409375e-09,1,3.00034409375e-09,0,3.00034409375e-09,0.08155726656195529,3.00034409375e-09,0.8722057403644856,3.00034409375e-09,1,3.00034409375e-09,1,3.00034409375e-09,-1.757859535735185e-05
3.000677760416e-09,1,3.000677760416e-09,0,3.000677760416e-09,0.08774089052635192,3.000677760416e-09,0.850054054311559,3.000677760416e-09,1,3.000677760416e-09,1,3.000677760416e-09,-1.794670401719834e-05
3.00134509375e-09,1,3.00134509375e-09,0,3.00134509375e-09,0.1009372041342844,3.00134509375e-09,0.8072277502137343,3.00134509375e-09,1,3.00134509375e-09,1,3.00134509375e-09,-1.845240899273814e-05
3.002679760416e-09,1,3.002679760416e-09,0,3.002679760416e-09,0.1306551487521721,3.002679760416e-09,0.7259875772890613,3.002679760416e-09,1,3.002679760416e-09,1,3.002679760416e-09,-1.826741662458774e-05
3.004836014256e-09,1,3.004836014256e-09,0,3.004836014256e-09,0.1810308486905871,3.004836014256e-09,0.5985098081472433,3.004836014256e-09,1,3.004836014256e-09,1,3.004836014256e-09,-1.688545582738726e-05
3.006896783283e-09,1,3.006896783283e-09,0,3.006896783283e-09,0.2226000990144898,3.006896783283e-09,0.4756175952797519,3.006896783283e-09,1,3.006896783283e-09,1,3.006896783283e-09,-1.709587841339556e-05
3.009220313292e-09,1,3.009220313292e-09,0,3.009220313292e-09,0.2647431833274735,3.009220313292e-09,0.3427403619872082,3.009220313292e-09,1,3.009220313292e-09,1,3.009220313292e-09,-1.953269229710217e-05
3.012073742254e-09,1,3.012073742254e-09,0,3.012073742254e-09,0.3346353246072212,3.012073742254e-09,0.2045849534008004,3.012073742254e-09,1,3.012073742254e-09,1,3.012073742254e-09,-2.188908527572243e-05
3.014253485438e-09,1,3.014253485438e-09,0,3.014253485438e-09,0.4122888974320159,3.014253485438e-09,0.1277833407426874,3.014253485438e-09,1,3.014253485438e-09,1,3.014253485438e-09,-2.136617770878372e-05
3.016876970063e-09,1,3.016876970063e-09,0,3.016876970063e-09,0.5325660724100445,3.016876970063e-09,0.07208951551051335,3.016876970063e-09,1,3.016876970063e-09,1,3.016876970063e-09,-2.022077266556076e-05
3.018984754421e-09,1,3.018984754421e-09,0,3.018984754421e-09,0.63914865962722,3.018984754421e-09,0.04756298192301003,3.018984754421e-09,1,3.018984754421e-09,1,3.018984754421e-09,-1.950541298155142e-05
3.021439615961e-09,1,3.021439615961e-09,0,3.021439615961e-09,0.7538257580811306,3.021439615961e-09,0.03086105195145727,3.021439615961e-09,1,3.021439615961e-09,1,3.021439615961e-09,-1.661194029419117e-05
3.023553117884e-09,1,3.023553117884e-09,0,3.023553117884e-09,0.8344409265911962,3.023553117884e-09,0.02100992418729269,3.023553117884e-09,1,3.023553117884e-09,1,3.023553117884e-09,-1.337089333539644e-05
3.026054893068e-09,1,3.026054893068e-09,0,3.026054893068e-09,0.9011978967909006,3.026054893068e-09,0.01258657962906417,3.026054893068e-09,1,3.026054893068e-09,1,3.026054893068e-09,-8.24906335452447e-06
3.0290979063e-09,1,3.0290979063e-09,0,3.0290979063e-09,0.9482093697339103,3.0290979063e-09,0.006383894045308329,3.0290979063e-09,1,3.0290979063e-09,1,3.0290979063e-09,-4.743047029931774e-06
3.032531718992e-09,1,3.032531718992e-09,0,3.032531718992e-09,0.9754615151683532,3.032531718992e-09,0.002952759690641638,3.032531718992e-09,1,3.032531718992e-09,1,3.032531718992e-09,-2.049527321196717e-06
3.035459762571e-09,1,3.035459762571e-09,0,3.035459762571e-09,0.9870621719218502,3.035459762571e-09,0.001558224360976685,3.035459762571e-09,1,3.035459762571e-09,1,3.035459762571e-09,-1.357973039121849e-06
3.038950515844e-09,1,3.038950515844e-09,0,3.038950515844e-09,0.9940691259963623,3.038950515844e-09,0.0007125869168933566,3.038950515844e-09,1,3.038950515844e-09,1,3.038950515844e-09,-3.761135398737939e-07
3.043157171868e-09,1,3.043157171868e-09,0,3.043157171868e-09,0.9977487223223266,3.043157171868e-09,0.0002719291817576286,3.043157171868e-09,1,3.043157171868e-09,1,3.043157171868e-09,-3.799694435213029e-07
3.048620053007e-09,1,3.048620053007e-09,0,3.048620053007e-09,0.999410180508016,3.048620053007e-09,7.007239562415513e-05,3.048620053007e-09,1,3.048620053007e-09,1,3.048620053007e-09,1.16057740563806e-07
3.055738857066e-09,1,3.055738857066e-09,0,3.055738857066e-09,0.9999213855805281,3.055738857066e-09,1.041529021555149e-05,3.055738857066e-09,1,3.055738857066e-09,1,3.055738857066e-09,-1.779265160376085e-07
3.065731009132e-09,1,3.065731009132e-09,0,3.065731009132e-09,1.000002448226659,3.065731009132e-09,-1.174408905408381e-06,3.065731009132e-09,1,3.065731009132e-09,1,3.065731009132e-09,1.705876585687822e-07
3.081181148242e-09,1,3.081181148242e-09,0,3.081181148242e-09,0.9999995980360553,3.081181148242e-09,9.147134600674774e-07,3.081181148242e-09,1,3.081181148242e-09,1,3.081181148242e-09,-1.703071656192023e-07
3.109517598455e-09,1,3.109517598455e-09,0,3.109517598455e-09,0.9999997896829003,3.109517598455e-09,-7.889667840080614e-07,3.109517598455e-09,1,3.109517598455e-09,1,3.109517598455e-09,1.701685439932362e-07
3.166190498879e-09,1,3.166190498879e-09,0,3.166190498879e-09,1.000000075012881,3.166190498879e-09,8.002889583024925e-07,3.166190498879e-09,1,3.166190498879e-09,1,3.166190498879e-09,-1.701737303124738e-07
3.279536299728e-09,1,3.279536299728e-09,0,3.279536299728e-09,0.999999650311828,3.279536299728e-09,-6.75021400638536e-07,3.279536299728e-09,1,3.279536299728e-09,1,3.279536299728e-09,1.701126876754487e-07
3.506227901426e-09,1,3.506227901426e-09,0,3.506227901426e-09,1.000000113737445,3.506227901426e-09,6.538179071835828e-07,3.506227901426e-09,1,3.506227901426e-09,1,3.506227901426e-09,-1.701497913988718e-07
3.959611104820999e-09,1,3.959611104820999e-09,0,3.959611104820999e-09,0.9999996476064014,3.959611104820999e-09,-5.19241107236195e-07,3.959611104820999e-09,1,3.959611104820999e-09,1,3.959611104820999e-09,1.701031385567133e-07
4.599611104821e-09,1,4.599611104821e-09,0,4.599611104821e-09,1.000000103845614,4.599611104821e-09,4.998283234745204e-07,4.599611104821e-09,1,4.599611104821e-09,1,4.599611104821e-09,-1.701460448182195e-07
5.239611104821e-09,1,5.239611104821e-09,0,5.239611104821e-09,0.9999996518173028,5.239611104821e-09,-4.270342172955052e-07,5.239611104821e-09,1,5.239611104821e-09,1,5.239611104821e-09,1.700995931799868e-07
5.879611104820999e-09,1,5.879611104820999e-09,0,5.879611104820999e-09,1.000000110188203,5.879611104820999e-09,4.840305345330606e-07,5.879611104820999e-09,1,5.879611104820999e-09,1,5.879611104820999e-09,-1.701411046679997e-07
5.999999999999999e-09,1,5.999999999999999e-09,0,5.999999999999999e-09,0.9999996272716405,5.999999999999999e-09,-4.26674694188031e-07,5.999999999999999e-09,1,5.999999999999999e-09,1,5.999999999999999e-09,1.700840187221791e-07
6.000005213541e-09,1,6.000005213541e-09,0,6.000005213541e-09,0.9999726818548927,6.000005213541e-09,-4.100218851312921e-05,6.000005213541e-09,1,6.000005213541e-09,0.9994786458333722,6.000005213541e-09,-1.450649240529892e-06
6.000015640625e-09,1,6.000015640625e-09,0,6.000015640625e-09,0.9999102688590052,6.000015640625e-09,-0.0001389945750811736,6.000015640625e-09,1,6.000015640625e-09,0.9984359375001166,6.000015640625e-09,-2.686136977309213e-06
6.000020854165999e-09,1,6.000020854165999e-09,0,6.000020854165999e-09,0.9998779010010583,6.000020854165999e-09,-0.000190969406566311,6.000020854165999e-09,1,6.000020854165999e-09,0.9979145833334888,6.000020854165999e-09,-2.325520870492598e-06
6.000031281248999e-09,1,6.000031281248999e-09,0,6.000031281248999e-09,0.9998163513190403,6.000031281248999e-09,-0.0002880571433171148,6.000031281248999e-09,1,6.000031281248999e-09,0.9968718750002332,6.000031281248999e-09,-2.303903025322511e-06
6.000052135415999e-09,1,6.000052135415999e-09,0,6.000052135415999e-09,0.9996934547440693,6.000052135415999e-09,-0.0004817468790336693,6.000052135415999e-09,1,6.000052135415999e-09,0.994786458333722,6.000052135415999e-09,-2.290041623771977e-06
6.000093843749e-09,1,6.000093843749e-09,0,6.000093843749e-09,0.9994532994361276,6.000093843749e-09,-0.0008577310649972553,6.000093843749e-09,1,6.000093843749e-09,0.9906156250006996,6.000093843749e-09,-2.249535997548464e-06
6.000177260415999e-09,1,6.000177260415999e-09,0,6.000177260415999e-09,0.99899097570325,6.000177260415999e-09,-0.00157245162491852,6.000177260415999e-09,1,6.000177260415999e-09,0.9822739583346548,6.000177260415999e-09,-2.188548496037148e-06
6.000344093748999e-09,1,6.000344093748999e-09,0,6.000344093748999e-09,0.9981355445962617,6.000344093748999e-09,-0.002861936070324354,6.000344093748999e-09,1,6.000344093748999e-09,0.9655906250025652,6.000344093748999e-09,-2.068627858968556e-06
6.000677760416e-09,1,6.000677760416e-09,0,6.000677760416e-09,0.9966574166761607,6.000677760416e-09,-0.004983226735151386,6.000677760416e-09,1,6.000677760416e-09,0.932223958338386,6.000677760416e-09,-1.904107989896412e-06
6.001345093749e-09,1,6.001345093749e-09,0,6.001345093749e-09,0.9943927652051207,6.001345093749e-09,-0.007952159963695148,6.001345093749e-09,1,6.001345093749e-09,0.8654906250100276,6.001345093749e-09,-1.716699433932254e-06
6.002679760415999e-09,1,6.002679760415999e-09,0,6.002679760415999e-09,0.9915027574153705,6.002679760415999e-09,-0.01128085389990117,6.002679760415999e-09,1,6.002679760415999e-09,0.7320239583533108,6.002679760415999e-09,-1.654514756849491e-06
6.004502397759e-09,1,6.004502397759e-09,0,6.004502397759e-09,0.9895240266145101,6.004502397759e-09,-0.01301124166590734,6.004502397759e-09,1,6.004502397759e-09,0.5497602240983468,6.004502397759e-09,-1.585171420409461e-06
