/BL (modelFiles=gpdk045.scs:ff) X,/BL (modelFiles=gpdk045.scs:ff) Y,/BLB (modelFiles=gpdk045.scs:ff) X,/BLB (modelFiles=gpdk045.scs:ff) Y,/Q (modelFiles=gpdk045.scs:ff) X,/Q (modelFiles=gpdk045.scs:ff) Y,/QB (modelFiles=gpdk045.scs:ff) X,/QB (modelFiles=gpdk045.scs:ff) Y,/VDD (modelFiles=gpdk045.scs:ff) X,/VDD (modelFiles=gpdk045.scs:ff) Y,/WL (modelFiles=gpdk045.scs:ff) X,/WL (modelFiles=gpdk045.scs:ff) Y,/V0/PLUS (modelFiles=gpdk045.scs:ff) X,/V0/PLUS (modelFiles=gpdk045.scs:ff) Y
0,0,0,1.2,0,1.895308716632564e-07,0,1.199998356860048,0,1.2,0,0,0,-2.837400495597887e-10
3e-11,0,3e-11,1.2,3e-11,1.895308733795843e-07,3e-11,1.199998356860141,3e-11,1.2,3e-11,0,3e-11,-2.837399679998517e-10
8.999999999999999e-11,0,8.999999999999999e-11,1.2,8.999999999999999e-11,1.895308718628434e-07,8.999999999999999e-11,1.199998356860152,8.999999999999999e-11,1.2,8.999999999999999e-11,0,8.999999999999999e-11,-2.837399668709831e-10
2.1e-10,0,2.1e-10,1.2,2.1e-10,1.895308708522279e-07,2.1e-10,1.19999835686008,2.1e-10,1.2,2.1e-10,0,2.1e-10,-2.837399783479673e-10
4.499999999999999e-10,0,4.499999999999999e-10,1.2,4.499999999999999e-10,1.895308721202156e-07,4.499999999999999e-10,1.199998356859998,4.499999999999999e-10,1.2,4.499999999999999e-10,0,4.499999999999999e-10,-2.837399903578114e-10
9.299999999999999e-10,0,9.299999999999999e-10,1.2,9.299999999999999e-10,1.895308714609667e-07,9.299999999999999e-10,1.199998356860099,9.299999999999999e-10,1.2,9.299999999999999e-10,0,9.299999999999999e-10,-2.837399751604624e-10
1.53e-09,0,1.53e-09,1.2,1.53e-09,1.895308716523613e-07,1.53e-09,1.199998356859978,1.53e-09,1.2,1.53e-09,0,1.53e-09,-2.837399936558215e-10
1.99e-09,0,1.99e-09,1.2,1.99e-09,1.895308716854459e-07,1.99e-09,1.199998356859993,1.99e-09,1.2,1.99e-09,0,1.99e-09,-2.837399913829956e-10
1.990083402777e-09,0.01000833333331958,1.990083402777e-09,1.18999166666668,1.990083402777e-09,1.976268740418925e-06,1.990083402777e-09,1.199997594543809,1.990083402777e-09,1.2,1.990083402777e-09,0,1.990083402777e-09,-2.535494383767883e-10
1.990250208333e-09,0.03002499999995875,1.990250208333e-09,1.169975000000041,1.990250208333e-09,2.600034637959926e-06,1.990250208333e-09,1.199997814526343,1.990250208333e-09,1.2,1.990250208333e-09,0,1.990250208333e-09,6.649082996447456e-10
1.990583819444e-09,0.07005833333323708,1.990583819444e-09,1.129941666666763,1.990583819444e-09,3.062619330387313e-06,1.990583819444e-09,1.199997966579728,1.990583819444e-09,1.2,1.990583819444e-09,0,1.990583819444e-09,-8.818438312118202e-10
1.991142864114e-09,0.137143693753392,1.991142864114e-09,1.062856306246608,1.991142864114e-09,3.999973007647649e-06,1.991142864114e-09,1.199998386465634,1.991142864114e-09,1.2,1.991142864114e-09,0,1.991142864114e-09,8.619072699663722e-10
1.992260953454e-09,0.2713144145937019,1.992260953454e-09,0.9286855854062981,1.992260953454e-09,3.946824763862044e-06,1.992260953454e-09,1.199998353218232,1.992260953454e-09,1.2,1.992260953454e-09,0,1.992260953454e-09,-1.431357699393926e-09
1.994497132135e-09,0.5396558562743216,1.994497132135e-09,0.6603441437256784,1.994497132135e-09,3.243466867653392e-06,1.994497132135e-09,1.199998260194602,1.994497132135e-09,1.2,1.994497132135e-09,0,1.994497132135e-09,7.641410641764982e-10
1.997248566067e-09,0.8698279281371856,1.997248566067e-09,0.3301720718628144,1.997248566067e-09,1.769266450293656e-06,1.997248566067e-09,1.199997964008941,1.997248566067e-09,1.2,1.997248566067e-09,0,1.997248566067e-09,-1.546548877551311e-09
2e-09,1.2,2e-09,0,2e-09,1.331520492748741e-06,2e-09,1.199997722506064,2e-09,1.2,2e-09,0,2e-09,7.487601451980588e-10
2.000083402777e-09,1.2,2.000083402777e-09,0,2.000083402777e-09,3.687874582257252e-07,2.000083402777e-09,1.199998761992244,2.000083402777e-09,1.2,2.000083402777e-09,0,2.000083402777e-09,1.274264507124529e-09
2.000250208333e-09,1.2,2.000250208333e-09,0,2.000250208333e-09,3.903393561542236e-07,2.000250208333e-09,1.19999872021589,2.000250208333e-09,1.2,2.000250208333e-09,0,2.000250208333e-09,-1.761755882190514e-09
2.000583819444e-09,1.2,2.000583819444e-09,0,2.000583819444e-09,4.23285553928201e-07,2.000583819444e-09,1.199998566697833,2.000583819444e-09,1.2,2.000583819444e-09,0,2.000583819444e-09,1.052799870005308e-09
2.001145330391e-09,1.2,2.001145330391e-09,0,2.001145330391e-09,4.738248807344416e-07,2.001145330391e-09,1.199998385022927,2.001145330391e-09,1.2,2.001145330391e-09,0,2.001145330391e-09,-1.669774239557419e-09
2.002268352286e-09,1.2,2.002268352286e-09,0,2.002268352286e-09,5.517170448845732e-07,2.002268352286e-09,1.199998025689896,2.002268352286e-09,1.2,2.002268352286e-09,0,2.002268352286e-09,9.199208519531449e-10
2.004514396075e-09,1.2,2.004514396075e-09,0,2.004514396075e-09,6.716825116961395e-07,2.004514396075e-09,1.199997593117076,2.004514396075e-09,1.2,2.004514396075e-09,0,2.004514396075e-09,-1.717694433506364e-09
2.009006483653e-09,1.2,2.009006483653e-09,0,2.009006483653e-09,7.831566440224585e-07,2.009006483653e-09,1.199997131675578,2.009006483653e-09,1.2,2.009006483653e-09,0,2.009006483653e-09,8.034755475736986e-10
2.017990658809e-09,1.2,2.017990658809e-09,0,2.017990658809e-09,8.354344943454974e-07,2.017990658809e-09,1.199996956395486,2.017990658809e-09,1.2,2.017990658809e-09,0,2.017990658809e-09,-1.778404422270763e-09
2.035959009121e-09,1.2,2.035959009121e-09,0,2.035959009121e-09,8.331360124965089e-07,2.035959009121e-09,1.199996943559175,2.035959009121e-09,1.2,2.035959009121e-09,0,2.035959009121e-09,7.780076222557966e-10
2.071895709745e-09,1.2,2.071895709745e-09,0,2.071895709745e-09,8.338942165927595e-07,2.071895709745e-09,1.199996959256383,2.071895709745e-09,1.2,2.071895709745e-09,0,2.071895709745e-09,-1.775532055446515e-09
2.143769110993e-09,1.2,2.143769110993e-09,0,2.143769110993e-09,8.338918164462778e-07,2.143769110993e-09,1.199996941424514,2.143769110993e-09,1.2,2.143769110993e-09,0,2.143769110993e-09,7.766767301205254e-10
2.287515913489e-09,1.2,2.287515913489e-09,0,2.287515913489e-09,8.336237417233691e-07,2.287515913489e-09,1.199996960026244,2.287515913489e-09,1.2,2.287515913489e-09,0,2.287515913489e-09,-1.774900022709594e-09
2.575009518482e-09,1.2,2.575009518482e-09,0,2.575009518482e-09,8.340268631205919e-07,2.575009518482e-09,1.199996941104854,2.575009518482e-09,1.2,2.575009518482e-09,0,2.575009518482e-09,7.76368489770014e-10
2.99e-09,1.2,2.99e-09,0,2.99e-09,8.335536113597389e-07,2.99e-09,1.199996960191308,2.99e-09,1.2,2.99e-09,0,2.99e-09,-1.774727892532122e-09
2.990005212673e-09,1.2,2.990005212673e-09,0,2.990005212673e-09,2.803282170634702e-05,2.990005212673e-09,1.200025869767641,2.990005212673e-09,1.2,2.990005212673e-09,0.0006255208333138624,2.990005212673e-09,1.079377791016853e-06
2.99001563802e-09,1.2,2.99001563802e-09,0,2.99001563802e-09,8.711034108174036e-05,2.99001563802e-09,1.200089887017494,2.99001563802e-09,1.2,2.99001563802e-09,0.001876562499941587,2.99001563802e-09,1.668584548104056e-06
2.990036488715e-09,1.2,2.990036488715e-09,0,2.990036488715e-09,0.0001971045625172937,2.990036488715e-09,1.200212978116922,2.990036488715e-09,1.2,2.990036488715e-09,0.004378645833197037,2.990036488715e-09,1.28325969741792e-06
2.990078190104e-09,1.2,2.990078190104e-09,0,2.990078190104e-09,0.0004106585509960402,2.990078190104e-09,1.200453255984064,2.990078190104e-09,1.2,2.990078190104e-09,0.009382812499707937,2.990078190104e-09,1.572411514985503e-06
2.990161592881e-09,1.2,2.990161592881e-09,0,2.990161592881e-09,0.0008248144100728191,2.990161592881e-09,1.200923115220331,2.990161592881e-09,1.2,2.990161592881e-09,0.01939114583272973,2.990161592881e-09,1.346504599028947e-06
2.990328398437e-09,1.2,2.990328398437e-09,0,2.990328398437e-09,0.001590286161415282,2.990328398437e-09,1.201808978785221,2.990328398437e-09,1.2,2.990328398437e-09,0.03940781249877334,2.990328398437e-09,1.596705173000774e-06
2.990662009548e-09,1.2,2.990662009548e-09,0,2.990662009548e-09,0.002917305097236993,2.990662009548e-09,1.203400732678551,2.990662009548e-09,1.2,2.990662009548e-09,0.07944114583086052,2.990662009548e-09,1.44285770553904e-06
2.99132923177e-09,1.2,2.99132923177e-09,0,2.99132923177e-09,0.004961177320436035,2.99132923177e-09,1.20599202599812,2.99132923177e-09,1.2,2.99132923177e-09,0.1595078124950349,2.99132923177e-09,1.778235299185049e-06
2.992663676215e-09,1.2,2.992663676215e-09,0,2.992663676215e-09,0.008168993324593327,2.992663676215e-09,1.209485206234969,2.992663676215e-09,1.2,2.992663676215e-09,0.3196411458233837,2.992663676215e-09,1.842099090039899e-06
2.994916779422e-09,1.2,2.994916779422e-09,0,2.994916779422e-09,0.01955427371805408,2.994916779422e-09,1.20228654656688,2.994916779422e-09,1.2,2.994916779422e-09,0.5900135307316885,2.994916779422e-09,-9.485797816363079e-08
2.997167091854e-09,1.2,2.997167091854e-09,0,2.997167091854e-09,0.05087635416228094,2.997167091854e-09,1.149631389173347,2.997167091854e-09,1.2,2.997167091854e-09,0.8600510225884006,2.997167091854e-09,-1.286359580050822e-05
2.998583545927e-09,1.2,2.998583545927e-09,0,2.998583545927e-09,0.08605334483245486,2.998583545927e-09,1.074177165581156,2.998583545927e-09,1.2,2.998583545927e-09,1.0300255112942,2.998583545927e-09,-2.046086792505348e-05
2.999419975765e-09,1.2,2.999419975765e-09,0,2.999419975765e-09,0.1143563912523353,2.999419975765e-09,1.00866130627475,2.999419975765e-09,1.2,2.999419975765e-09,1.130397091815111,2.999419975765e-09,-2.382375080549833e-05
2.999709987882e-09,1.2,2.999709987882e-09,0,2.999709987882e-09,0.1261244389199393,2.999709987882e-09,0.9822436197666612,2.999709987882e-09,1.2,2.999709987882e-09,1.165198545907531,2.999709987882e-09,-2.45245427698849e-05
3e-09,1.2,3e-09,0,3e-09,0.139248740866673,3e-09,0.9540408537301575,3e-09,1.2,3e-09,1.19999999999995,3e-09,-2.528878137547274e-05
3.000005212673e-09,1.2,3.000005212673e-09,0,3.000005212673e-09,0.1394312007672302,3.000005212673e-09,0.9534793436314003,3.000005212673e-09,1.2,3.000005212673e-09,1.2,3.000005212673e-09,-2.698735250761168e-05
3.00001563802e-09,1.2,3.00001563802e-09,0,3.00001563802e-09,0.1397656776814828,3.00001563802e-09,0.952338251132018,3.00001563802e-09,1.2,3.00001563802e-09,1.2,3.00001563802e-09,-2.847085021820617e-05
3.000020850694e-09,1.2,3.000020850694e-09,0,3.000020850694e-09,0.1399224858247871,3.000020850694e-09,0.9517622509351282,3.000020850694e-09,1.2,3.000020850694e-09,1.2,3.000020850694e-09,-2.819992976735968e-05
3.000023457031e-09,1.2,3.000023457031e-09,0,3.000023457031e-09,0.1400029721869216,3.000023457031e-09,0.9514758320736998,3.000023457031e-09,1.2,3.000023457031e-09,1.2,3.000023457031e-09,-2.816157330519974e-05
3.000028669704e-09,1.2,3.000028669704e-09,0,3.000028669704e-09,0.1401633506372993,3.000028669704e-09,0.9509028558945953,3.000028669704e-09,1.2,3.000028669704e-09,1.2,3.000028669704e-09,-2.819295791850778e-05
3.000039095052e-09,1.2,3.000039095052e-09,0,3.000039095052e-09,0.1404847032466839,3.000039095052e-09,0.9497579148427702,3.000039095052e-09,1.2,3.000039095052e-09,1.2,3.000039095052e-09,-2.817763891798388e-05
3.000059945746e-09,1.2,3.000059945746e-09,0,3.000059945746e-09,0.141129108894116,3.000059945746e-09,0.9474714175515665,3.000059945746e-09,1.2,3.000059945746e-09,1.2,3.000059945746e-09,-2.822588832764166e-05
3.000101647135e-09,1.2,3.000101647135e-09,0,3.000101647135e-09,0.1424246121056288,3.000101647135e-09,0.9429118754653278,3.000101647135e-09,1.2,3.000101647135e-09,1.2,3.000101647135e-09,-2.825191014045821e-05
3.000185049913e-09,1.2,3.000185049913e-09,0,3.000185049913e-09,0.145042480116454,3.000185049913e-09,0.9338453164280622,3.000185049913e-09,1.2,3.000185049913e-09,1.2,3.000185049913e-09,-2.835437804711055e-05
3.000351855468e-09,1.2,3.000351855468e-09,0,3.000351855468e-09,0.1503858340250098,3.000351855468e-09,0.9159116923931282,3.000351855468e-09,1.2,3.000351855468e-09,1.2,3.000351855468e-09,-2.845007540357304e-05
3.000685466579e-09,1.2,3.000685466579e-09,0,3.000685466579e-09,0.1614999999754178,3.000685466579e-09,0.8807598402828274,3.000685466579e-09,1.2,3.000685466579e-09,1.2,3.000685466579e-09,-2.851937301572231e-05
3.001352688801e-09,1.2,3.001352688801e-09,0,3.001352688801e-09,0.1854404089768561,3.001352688801e-09,0.8128021949810028,3.001352688801e-09,1.2,3.001352688801e-09,1.2,3.001352688801e-09,-2.803353329876869e-05
3.002687133246e-09,1.2,3.002687133246e-09,0,3.002687133246e-09,0.2404125867755534,3.002687133246e-09,0.6840312499034474,3.002687133246e-09,1.2,3.002687133246e-09,1.2,3.002687133246e-09,-2.634871045052082e-05
3.004690060179e-09,1.2,3.004690060179e-09,0,3.004690060179e-09,0.3347941267598671,3.004690060179e-09,0.5029145176341562,3.004690060179e-09,1.2,3.004690060179e-09,1.2,3.004690060179e-09,-2.77297264156603e-05
3.007043405072e-09,1.2,3.007043405072e-09,0,3.007043405072e-09,0.4534694167734096,3.007043405072e-09,0.3060220491076427,3.007043405072e-09,1.2,3.007043405072e-09,1.2,3.007043405072e-09,-3.261174492984469e-05
3.009575866725e-09,1.2,3.009575866725e-09,0,3.009575866725e-09,0.594051317540582,3.009575866725e-09,0.1472704784216916,3.009575866725e-09,1.2,3.009575866725e-09,1.2,3.009575866725e-09,-3.200059811762032e-05
3.011514756265e-09,1.2,3.011514756265e-09,0,3.011514756265e-09,0.7147649765001171,3.011514756265e-09,0.07709070531635688,3.011514756265e-09,1.2,3.011514756265e-09,1.2,3.011514756265e-09,-3.054280200368356e-05
3.013810353036e-09,1.2,3.013810353036e-09,0,3.013810353036e-09,0.8629605791276925,3.013810353036e-09,0.03941262492289108,3.013810353036e-09,1.2,3.013810353036e-09,1.2,3.013810353036e-09,-2.548534809962117e-05
3.01631217207e-09,1.2,3.01631217207e-09,0,3.01631217207e-09,1.001081798975965,3.01631217207e-09,0.02236303999923407,3.01631217207e-09,1.2,3.01631217207e-09,1.2,3.01631217207e-09,-1.858953071982986e-05
3.018252121832e-09,1.2,3.018252121832e-09,0,3.018252121832e-09,1.074345671936444,3.018252121832e-09,0.01460808727984331,3.018252121832e-09,1.2,3.018252121832e-09,1.2,3.018252121832e-09,-1.165511688818201e-05
3.020396228019e-09,1.2,3.020396228019e-09,0,3.020396228019e-09,1.124859765563567,3.020396228019e-09,0.008872833190626574,3.020396228019e-09,1.2,3.020396228019e-09,1.2,3.020396228019e-09,-7.787608486375248e-06
3.022831380984e-09,1.2,3.022831380984e-09,0,3.022831380984e-09,1.158451335051822,3.022831380984e-09,0.004961956695883216,3.022831380984e-09,1.2,3.022831380984e-09,1.2,3.022831380984e-09,-3.813030822682216e-06
3.025244831962e-09,1.2,3.025244831962e-09,0,3.025244831962e-09,1.177086682225092,3.025244831962e-09,0.002776894467462517,3.025244831962e-09,1.2,3.025244831962e-09,1.2,3.025244831962e-09,-2.737287378724618e-06
3.028089260616e-09,1.2,3.028089260616e-09,0,3.028089260616e-09,1.188807199255675,3.028089260616e-09,0.001365872928039096,3.028089260616e-09,1.2,3.028089260616e-09,1.2,3.028089260616e-09,-7.795119138822147e-07
3.031489142978e-09,1.2,3.031489142978e-09,0,3.031489142978e-09,1.195352270523812,3.031489142978e-09,0.0005758075559253732,3.031489142978e-09,1.2,3.031489142978e-09,1.2,3.031489142978e-09,-8.675752560252972e-07
3.035707924554e-09,1.2,3.035707924554e-09,0,3.035707924554e-09,1.198509722333843,3.035707924554e-09,0.0001808007034291028,3.035707924554e-09,1.2,3.035707924554e-09,1.2,3.035707924554e-09,2.243867173422712e-07
3.041064823424e-09,1.2,3.041064823424e-09,0,3.041064823424e-09,1.199687568501555,3.041064823424e-09,4.186176489719392e-05,3.041064823424e-09,1.2,3.041064823424e-09,1.2,3.041064823424e-09,-4.129486225202564e-07
3.048288765431e-09,1.2,3.048288765431e-09,0,3.048288765431e-09,1.199979220364418,3.048288765431e-09,-8.788439957234189e-07,3.048288765431e-09,1.2,3.048288765431e-09,1.2,3.048288765431e-09,3.77213394723258e-07
3.058871626791e-09,1.2,3.058871626791e-09,0,3.058871626791e-09,1.200000897928374,3.058871626791e-09,2.921344177189183e-06,3.058871626791e-09,1.2,3.058871626791e-09,1.2,3.058871626791e-09,-3.792265734833107e-07
3.076465962452e-09,1.2,3.076465962452e-09,0,3.076465962452e-09,1.19999754983158,3.076465962452e-09,-2.751911264774747e-06,3.076465962452e-09,1.2,3.076465962452e-09,1.2,3.076465962452e-09,3.786539215203357e-07
3.111654633773e-09,1.2,3.111654633773e-09,0,3.111654633773e-09,1.199998761021401,3.111654633773e-09,2.902102436150165e-06,3.111654633773e-09,1.2,3.111654633773e-09,1.2,3.111654633773e-09,-3.791667419967518e-07
3.182031976414e-09,1.2,3.182031976414e-09,0,3.182031976414e-09,1.199998135198133,3.182031976414e-09,-2.29467130935706e-06,3.182031976414e-09,1.2,3.182031976414e-09,1.2,3.182031976414e-09,3.785735774095318e-07
3.322786661697e-09,1.2,3.322786661697e-09,0,3.322786661697e-09,1.199998514785192,3.322786661697e-09,1.970202615319215e-06,3.322786661697e-09,1.2,3.322786661697e-09,1.2,3.322786661697e-09,-3.791258478285763e-07
3.604296032263e-09,1.2,3.604296032263e-09,0,3.604296032263e-09,1.199998264142973,3.604296032263e-09,-1.144460194930051e-06,3.604296032263e-09,1.2,3.604296032263e-09,1.2,3.604296032263e-09,3.785568140250676e-07
4.167314773395e-09,1.2,4.167314773395e-09,0,4.167314773395e-09,1.199998443516626,4.167314773395e-09,8.114850778556934e-07,4.167314773395e-09,1.2,4.167314773395e-09,1.2,4.167314773395e-09,-3.791198941038048e-07
4.767314773395e-09,1.2,4.767314773395e-09,0,4.767314773395e-09,1.199998316955871,4.767314773395e-09,1.4336361028305e-08,4.767314773395e-09,1.2,4.767314773395e-09,1.2,4.767314773395e-09,3.785549716622996e-07
5.367314773394999e-09,1.2,5.367314773394999e-09,0,5.367314773394999e-09,1.199998383825946,5.367314773394999e-09,2.166018017009555e-07,5.367314773394999e-09,1.2,5.367314773394999e-09,1.2,5.367314773394999e-09,-3.791200521154053e-07
5.967314773395e-09,1.2,5.967314773395e-09,0,5.967314773395e-09,1.199998380895896,5.967314773395e-09,1.800524326986869e-08,5.967314773395e-09,1.2,5.967314773395e-09,1.2,5.967314773395e-09,3.785560458712155e-07
5.999999999999999e-09,1.2,5.999999999999999e-09,0,5.999999999999999e-09,1.199997982250244,5.999999999999999e-09,7.812756338361683e-07,5.999999999999999e-09,1.2,5.999999999999999e-09,1.2,5.999999999999999e-09,-3.790954251381808e-07
6.000005212672999e-09,1.2,6.000005212672999e-09,0,6.000005212672999e-09,1.199962960494709,6.000005212672999e-09,-5.100774717894475e-05,6.000005212672999e-09,1.2,6.000005212672999e-09,1.199374479166637,6.000005212672999e-09,-1.843620001319139e-06
6.000015638019999e-09,1.2,6.000015638019999e-09,0,6.000015638019999e-09,1.199881730390725,6.000015638019999e-09,-0.0001748043921566088,6.000015638019999e-09,1.2,6.000015638019999e-09,1.198123437499909,6.000015638019999e-09,-3.158663537026993e-06
6.000020850694e-09,1.2,6.000020850694e-09,0,6.000020850694e-09,1.199838934276005,6.000020850694e-09,-0.000240537453483979,6.000020850694e-09,1.2,6.000020850694e-09,1.197497916666546,6.000020850694e-09,-2.831089074634313e-06
6.000031276041e-09,1.2,6.000031276041e-09,0,6.000031276041e-09,1.199758120088862,6.000031276041e-09,-0.0003629555909866804,6.000031276041e-09,1.2,6.000031276041e-09,1.196246874999819,6.000031276041e-09,-2.749835670810739e-06
6.000052126735999e-09,1.2,6.000052126735999e-09,0,6.000052126735999e-09,1.199597066511585,6.000052126735999e-09,-0.0006063719034908079,6.000052126735999e-09,1.2,6.000052126735999e-09,1.193744791666365,6.000052126735999e-09,-2.766634162848693e-06
6.000093828125e-09,1.2,6.000093828125e-09,0,6.000093828125e-09,1.199283147200404,6.000093828125e-09,-0.001077375747221121,6.000093828125e-09,1.2,6.000093828125e-09,1.188740624999457,6.000093828125e-09,-2.688971450543576e-06
6.000177230902e-09,1.2,6.000177230902e-09,0,6.000177230902e-09,1.198681561714612,6.000177230902e-09,-0.00196607489912214,6.000177230902e-09,1.2,6.000177230902e-09,1.17873229166564,6.000177230902e-09,-2.643653967646186e-06
6.000344036457999e-09,1.2,6.000344036457999e-09,0,6.000344036457999e-09,1.197578476380011,6.000344036457999e-09,-0.003546136235854435,6.000344036457999e-09,1.2,6.000344036457999e-09,1.158715624998008,6.000344036457999e-09,-2.476428167235728e-06
6.000677647569e-09,1.2,6.000677647569e-09,0,6.000677647569e-09,1.195704959082132,6.000677647569e-09,-0.006067176292268251,6.000677647569e-09,1.2,6.000677647569e-09,1.118682291662743,6.000677647569e-09,-2.314530572464695e-06
